DZT2019,0,1999
11,9A,2D
1,in_IRMXUADVANCED1.AmpSv1_A.instMag,,,A,8.102728346E-02,0,0,-32768,32767,1,1,P
2,in_IRMXUADVANCED1.AmpSv1_B.instMag,,,A,1.015022962E-01,0,0,-32768,32767,1,1,P
3,in_IRMXUADVANCED1.AmpSv1_C.instMag,,,A,1.122796510E-01,0,0,-32768,32767,1,1,P
4,in_IRMXUADVANCED2.AmpSv1_A.instMag,,,A,1.213166801E-01,0,0,-32768,32767,1,1,P
5,in_IRMXUADVANCED2.AmpSv1_B.instMag,,,A,1.249763430E-01,0,0,-32768,32767,1,1,P
6,in_IRMXUADVANCED2.AmpSv1_C.instMag,,,A,1.202051667E-01,0,0,-32768,32767,1,1,P
7,in_IRHAIADVANCED1.AmpSv1_A.instMag,,,A,8.102728346E-02,0,0,-32768,32767,1,1,P
8,in_IRHAIADVANCED1.AmpSv1_B.instMag,,,A,1.015022962E-01,0,0,-32768,32767,1,1,P
9,in_IRHAIADVANCED1.AmpSv1_C.instMag,,,A,1.122796510E-01,0,0,-32768,32767,1,1,P
1,in_PDIF.Blk.stVal,,,0
2,in_INSTPDIF.Blk.stVal,,,0
50.0
1
4000,8001
27/05/2021,01:00:54.446000
27/05/2021,01:00:54.446000
ASCII
1
1,0,-2583,-1016,2807,5419,21235,-27547,-2583,-1016,2807,0,0
2,250,-2298,-1253,2838,3175,22608,-26710,-2298,-1253,2838,0,0
3,500,-2043,-1477,2855,911,23842,-25708,-2043,-1477,2855,0,0
4,750,-1775,-1692,2855,-1358,24928,-24547,-1775,-1692,2855,0,0
5,1000,-1497,-1896,2837,-3619,25861,-23235,-1497,-1896,2837,0,0
6,1250,-1209,-2089,2801,-5857,26635,-21780,-1209,-2089,2801,0,0
7,1500,-914,-2268,2748,-8060,27244,-20191,-914,-2268,2748,0,0
8,1750,-613,-2434,2679,-10213,27685,-18477,-613,-2434,2679,0,0
9,2000,-308,-2585,2592,-12302,27956,-16650,-308,-2585,2592,0,0
10,2250,-2,-2719,2490,-14316,28054,-14719,-2,-2719,2490,0,0
11,2500,305,-2837,2373,-16242,27980,-12698,305,-2837,2373,0,0
12,2750,609,-2938,2240,-18068,27732,-10599,609,-2938,2240,0,0
13,3000,910,-3020,2094,-19782,27314,-8434,910,-3020,2094,0,0
14,3250,1205,-3084,1935,-21374,26728,-6217,1205,-3084,1935,0,0
15,3500,1493,-3129,1764,-22834,25976,-3962,1493,-3129,1764,0,0
16,3750,1772,-3154,1583,-24154,25065,-1682,1772,-3154,1583,0,0
17,4000,2040,-3160,1391,-25325,23999,607,2040,-3160,1391,0,0
18,4250,2295,-3147,1191,-26339,22785,2894,2295,-3147,1191,0,0
19,4500,2536,-3114,984,-27191,21430,5162,2536,-3114,984,0,0
20,4750,2761,-3062,770,-27876,19944,7398,2761,-3062,770,0,0
21,5000,2969,-2991,552,-28389,18334,9589,2969,-2991,552,0,0
22,5250,3159,-2901,330,-28726,16611,11721,3159,-2901,330,0,0
23,5500,3330,-2794,107,-28887,14786,13780,3330,-2794,107,0,0
24,5750,3480,-2670,-118,-28869,12870,15755,3480,-2670,-118,0,0
25,6000,3608,-2529,-341,-28674,10875,17632,3608,-2529,-341,0,0
26,6250,3714,-2372,-563,-28301,8812,19401,3714,-2372,-563,0,0
27,6500,3798,-2201,-781,-27754,6695,21050,3798,-2201,-781,0,0
28,6750,3858,-2016,-994,-27037,4537,22569,3858,-2016,-994,0,0
29,7000,3894,-1819,-1201,-26152,2351,23950,3894,-1819,-1201,0,0
30,7250,3906,-1611,-1401,-25106,150,25182,3906,-1611,-1401,0,0
31,7500,3894,-1392,-1592,-23905,-2051,26259,3894,-1392,-1592,0,0
32,7750,3858,-1165,-1773,-22557,-4240,27175,3858,-1165,-1773,0,0
33,8000,3799,-931,-1944,-21070,-6403,27922,3799,-931,-1944,0,0
34,8250,3715,-691,-2102,-19453,-8526,28498,3715,-691,-2102,0,0
35,8500,3609,-447,-2247,-17716,-10597,28898,3609,-447,-2247,0,0
36,8750,3481,-201,-2379,-15870,-12603,29120,3481,-201,-2379,0,0
37,9000,3331,48,-2496,-13926,-14530,29162,3331,48,-2496,0,0
38,9250,3161,295,-2597,-11896,-16368,29025,3161,295,-2597,0,0
39,9500,2971,541,-2682,-9793,-18106,28708,2971,541,-2682,0,0
40,9750,2763,784,-2751,-7630,-19731,28215,2763,784,-2751,0,0
41,10000,2538,1022,-2803,-5419,-21235,27547,2538,1022,-2803,0,0
42,10250,2297,1253,-2838,-3175,-22608,26710,2297,1253,-2838,0,0
43,10500,2042,1477,-2855,-911,-23842,25708,2042,1477,-2855,0,0
44,10750,1774,1692,-2855,1358,-24928,24547,1774,1692,-2855,0,0
45,11000,1496,1896,-2837,3619,-25861,23236,1496,1896,-2837,0,0
46,11250,1208,2088,-2801,5857,-26635,21781,1208,2088,-2801,0,0
47,11500,913,2268,-2748,8060,-27244,20191,913,2268,-2748,0,0
48,11750,612,2434,-2679,10213,-27685,18477,612,2434,-2679,0,0
49,12000,308,2585,-2592,12302,-27956,16650,308,2585,-2592,0,0
50,12250,1,2719,-2490,14316,-28054,14719,1,2719,-2490,0,0
51,12500,-305,2837,-2372,16242,-27980,12698,-305,2837,-2372,0,0
52,12750,-610,2938,-2240,18068,-27732,10599,-610,2938,-2240,0,0
53,13000,-911,3020,-2094,19782,-27314,8434,-911,3020,-2094,0,0
54,13250,-1206,3084,-1935,21374,-26728,6217,-1206,3084,-1935,0,0
55,13500,-1494,3129,-1764,22834,-25976,3962,-1494,3129,-1764,0,0
56,13750,-1773,3154,-1583,24154,-25065,1682,-1773,3154,-1583,0,0
57,14000,-2040,3160,-1391,25325,-23999,-607,-2040,3160,-1391,0,0
58,14250,-2295,3147,-1191,26339,-22785,-2894,-2295,3147,-1191,0,0
59,14500,-2536,3114,-984,27191,-21430,-5162,-2536,3114,-984,0,0
60,14750,-2762,3062,-770,27876,-19944,-7398,-2762,3062,-770,0,0
61,15000,-2970,2991,-552,28389,-18334,-9589,-2970,2991,-552,0,0
62,15250,-3160,2901,-330,28726,-16611,-11721,-3160,2901,-330,0,0
63,15500,-3330,2794,-107,28887,-14786,-13780,-3330,2794,-107,0,0
64,15750,-3480,2670,118,28869,-12870,-15755,-3480,2670,118,0,0
65,16000,-3609,2529,341,28674,-10875,-17632,-3609,2529,341,0,0
66,16250,-3715,2372,563,28301,-8812,-19401,-3715,2372,563,0,0
67,16500,-3799,2201,781,27754,-6695,-21050,-3799,2201,781,0,0
68,16750,-3859,2016,994,27037,-4537,-22569,-3859,2016,994,0,0
69,17000,-3895,1819,1201,26152,-2351,-23950,-3895,1819,1201,0,0
70,17250,-3907,1611,1401,25106,-150,-25182,-3907,1611,1401,0,0
71,17500,-3895,1392,1592,23905,2051,-26259,-3895,1392,1592,0,0
72,17750,-3859,1165,1773,22557,4240,-27175,-3859,1165,1773,0,0
73,18000,-3799,931,1944,21070,6403,-27922,-3799,931,1944,0,0
74,18250,-3716,691,2102,19453,8526,-28498,-3716,691,2102,0,0
75,18500,-3610,447,2247,17716,10597,-28898,-3610,447,2247,0,0
76,18750,-3482,200,2379,15870,12603,-29120,-3482,200,2379,0,0
77,19000,-3332,-48,2496,13926,14530,-29162,-3332,-48,2496,0,0
78,19250,-3162,-295,2597,11896,16368,-29024,-3162,-295,2597,0,0
79,19500,-2972,-541,2682,9793,18106,-28708,-2972,-541,2682,0,0
80,19750,-2764,-784,2751,7629,19731,-28214,-2764,-784,2751,0,0
81,20000,-2539,-1022,2803,5419,21235,-27547,-2539,-1022,2803,0,0
82,20250,-2298,-1253,2838,3175,22608,-26710,-2298,-1253,2838,0,0
83,20500,-2043,-1477,2855,911,23842,-25708,-2043,-1477,2855,0,0
84,20750,-1775,-1692,2855,-1358,24928,-24547,-1775,-1692,2855,0,0
85,21000,-1497,-1896,2837,-3619,25861,-23235,-1497,-1896,2837,0,0
86,21250,-1209,-2089,2801,-5857,26635,-21780,-1209,-2089,2801,0,0
87,21500,-914,-2268,2748,-8060,27244,-20191,-914,-2268,2748,0,0
88,21750,-613,-2434,2679,-10213,27685,-18477,-613,-2434,2679,0,0
89,22000,-308,-2585,2592,-12302,27956,-16650,-308,-2585,2592,0,0
90,22250,-2,-2719,2490,-14316,28054,-14719,-2,-2719,2490,0,0
91,22500,305,-2837,2372,-16243,27980,-12697,305,-2837,2372,0,0
92,22750,609,-2938,2240,-18068,27732,-10598,609,-2938,2240,0,0
93,23000,910,-3020,2094,-19782,27314,-8433,910,-3020,2094,0,0
94,23250,1205,-3084,1935,-21374,26728,-6216,1205,-3084,1935,0,0
95,23500,1493,-3129,1764,-22835,25976,-3961,1493,-3129,1764,0,0
96,23750,1772,-3154,1583,-24155,25065,-1682,1772,-3154,1583,0,0
97,24000,2040,-3160,1391,-25325,23999,608,2040,-3160,1391,0,0
98,24250,2295,-3147,1191,-26340,22785,2894,2295,-3147,1191,0,0
99,24500,2536,-3114,984,-27192,21430,5162,2536,-3114,984,0,0
100,24750,2761,-3062,770,-27877,19944,7399,2761,-3062,770,0,0
101,25000,2969,-2991,552,-28389,18334,9590,2969,-2991,552,0,0
102,25250,3159,-2902,330,-28727,16612,11721,3159,-2902,330,0,0
103,25500,3330,-2794,106,-28887,14787,13781,3330,-2794,106,0,0
104,25750,3480,-2670,-118,-28870,12870,15755,3480,-2670,-118,0,0
105,26000,3608,-2529,-341,-28674,10875,17633,3608,-2529,-341,0,0
106,26250,3714,-2372,-563,-28302,8812,19401,3714,-2372,-563,0,0
107,26500,3798,-2201,-781,-27755,6695,21050,3798,-2201,-781,0,0
108,26750,3858,-2016,-994,-27037,4537,22570,3858,-2016,-994,0,0
109,27000,3894,-1819,-1201,-26152,2351,23950,3894,-1819,-1201,0,0
110,27250,3906,-1611,-1401,-25106,150,25182,3906,-1611,-1401,0,0
111,27500,3894,-1392,-1592,-23906,-2051,26260,3894,-1392,-1592,0,0
112,27750,3858,-1166,-1773,-22558,-4240,27175,3858,-1166,-1773,0,0
113,28000,3798,-931,-1944,-21071,-6403,27923,3798,-931,-1944,0,0
114,28250,3715,-692,-2102,-19453,-8526,28498,3715,-692,-2102,0,0
115,28500,3609,-447,-2247,-17717,-10597,28898,3609,-447,-2247,0,0
116,28750,3481,-201,-2379,-15870,-12602,29120,3481,-201,-2379,0,0
117,29000,3332,48,-2495,-13926,-14531,29163,3332,48,-2495,0,0
118,29250,3161,296,-2597,-11896,-16369,29025,3161,296,-2597,0,0
119,29500,2971,541,-2682,-9793,-18106,28708,2971,541,-2682,0,0
120,29750,2763,784,-2751,-7629,-19732,28215,2763,784,-2751,0,0
121,30000,2538,1022,-2803,-5419,-21236,27547,2538,1022,-2803,0,0
122,30250,2297,1253,-2838,-3175,-22609,26710,2297,1253,-2838,0,0
123,30500,2042,1477,-2855,-911,-23842,25708,2042,1477,-2855,0,0
124,30750,1775,1692,-2855,1358,-24929,24548,1775,1692,-2855,0,0
125,31000,1496,1896,-2836,3619,-25862,23236,1496,1896,-2836,0,0
126,31250,1209,2089,-2801,5858,-26635,21781,1209,2089,-2801,0,0
127,31500,913,2268,-2748,8060,-27245,20191,913,2268,-2748,0,0
128,31750,612,2434,-2678,10213,-27686,18478,612,2434,-2678,0,0
129,32000,308,2585,-2592,12303,-27957,16650,308,2585,-2592,0,0
130,32250,1,2719,-2490,14316,-28055,14719,1,2719,-2490,0,0
131,32500,-305,2837,-2372,16242,-27979,12698,-305,2837,-2372,0,0
132,32750,-610,2938,-2240,18067,-27732,10599,-610,2938,-2240,0,0
133,33000,-911,3020,-2094,19782,-27314,8434,-911,3020,-2094,0,0
134,33250,-1206,3084,-1935,21374,-26728,6217,-1206,3084,-1935,0,0
135,33500,-1494,3129,-1764,22834,-25976,3962,-1494,3129,-1764,0,0
136,33750,-1772,3154,-1582,24154,-25065,1683,-1772,3154,-1582,0,0
137,34000,-2040,3160,-1391,25325,-23999,-607,-2040,3160,-1391,0,0
138,34250,-2295,3147,-1191,26339,-22785,-2894,-2295,3147,-1191,0,0
139,34500,-2536,3114,-984,27191,-21430,-5162,-2536,3114,-984,0,0
140,34750,-2762,3062,-770,27876,-19944,-7398,-2762,3062,-770,0,0
141,35000,-2970,2991,-552,28389,-18334,-9589,-2970,2991,-552,0,0
142,35250,-3160,2901,-330,28726,-16612,-11721,-3160,2901,-330,0,0
143,35500,-3330,2794,-106,28887,-14787,-13780,-3330,2794,-106,0,0
144,35750,-3480,2670,118,28869,-12870,-15755,-3480,2670,118,0,0
145,36000,-3609,2529,342,28674,-10875,-17632,-3609,2529,342,0,0
146,36250,-3715,2372,563,28301,-8812,-19401,-3715,2372,563,0,0
147,36500,-3799,2201,781,27754,-6695,-21050,-3799,2201,781,0,0
148,36750,-3859,2016,994,27037,-4537,-22569,-3859,2016,994,0,0
149,37000,-3895,1819,1201,26152,-2351,-23950,-3895,1819,1201,0,0
150,37250,-3907,1611,1401,25106,-150,-25182,-3907,1611,1401,0,0
151,37500,-3895,1392,1592,23906,2051,-26259,-3895,1392,1592,0,0
152,37750,-3859,1166,1773,22557,4240,-27175,-3859,1166,1773,0,0
153,38000,-3799,932,1944,21070,6403,-27922,-3799,932,1944,0,0
154,38250,-3716,692,2102,19453,8526,-28498,-3716,692,2102,0,0
155,38500,-3610,447,2247,17716,10597,-28898,-3610,447,2247,0,0
156,38750,-3482,200,2379,15870,12602,-29120,-3482,200,2379,0,0
157,39000,-3332,-48,2495,13927,14530,-29162,-3332,-48,2495,0,0
158,39250,-3162,-296,2597,11896,16368,-29024,-3162,-296,2597,0,0
159,39500,-2972,-541,2682,9793,18105,-28708,-2972,-541,2682,0,0
160,39750,-2764,-784,2751,7630,19731,-28214,-2764,-784,2751,0,0
161,40000,-2538,-1022,2803,5419,21235,-27547,-2538,-1022,2803,0,0
162,40250,-2297,-1253,2838,3175,22608,-26710,-2297,-1253,2838,0,0
163,40500,-2043,-1477,2855,911,23842,-25708,-2043,-1477,2855,0,0
164,40750,-1775,-1692,2855,-1358,24929,-24548,-1775,-1692,2855,0,0
165,41000,-1497,-1896,2837,-3619,25861,-23236,-1497,-1896,2837,0,0
166,41250,-1209,-2089,2801,-5857,26635,-21781,-1209,-2089,2801,0,0
167,41500,-914,-2268,2748,-8060,27244,-20191,-914,-2268,2748,0,0
168,41750,-613,-2434,2679,-10213,27686,-18477,-613,-2434,2679,0,0
169,42000,-308,-2585,2592,-12302,27956,-16650,-308,-2585,2592,0,0
170,42250,-2,-2719,2490,-14316,28055,-14719,-2,-2719,2490,0,0
171,42500,305,-2837,2373,-16242,27980,-12698,305,-2837,2373,0,0
172,42750,609,-2938,2240,-18068,27733,-10599,609,-2938,2240,0,0
173,43000,910,-3020,2094,-19782,27315,-8434,910,-3020,2094,0,0
174,43250,1205,-3084,1935,-21374,26728,-6217,1205,-3084,1935,0,0
175,43500,1493,-3129,1764,-22834,25977,-3962,1493,-3129,1764,0,0
176,43750,1772,-3154,1583,-24154,25065,-1683,1772,-3154,1583,0,0
177,44000,2039,-3160,1391,-25325,23999,607,2039,-3160,1391,0,0
178,44250,2295,-3147,1191,-26339,22785,2893,2295,-3147,1191,0,0
179,44500,2536,-3114,984,-27192,21431,5162,2536,-3114,984,0,0
180,44750,2761,-3062,770,-27876,19944,7398,2761,-3062,770,0,0
181,45000,2969,-2991,552,-28389,18335,9589,2969,-2991,552,0,0
182,45250,3159,-2901,330,-28727,16612,11721,3159,-2901,330,0,0
183,45500,3330,-2794,107,-28887,14787,13780,3330,-2794,107,0,0
184,45750,3480,-2670,-118,-28869,12870,15755,3480,-2670,-118,0,0
185,46000,3609,-2526,-340,-28665,10867,17631,3609,-2526,-340,0,0
186,46250,3719,-2363,-559,-28270,8786,19397,3719,-2363,-559,0,0
187,46500,3807,-2180,-772,-27683,6635,21040,3807,-2180,-772,0,0
188,46750,3871,-1985,-982,-26928,4446,22555,3871,-1985,-982,0,0
189,47000,3901,-1796,-1194,-26058,2271,23938,3901,-1796,-1194,0,0
190,47250,3907,-1594,-1399,-25025,80,25173,3907,-1594,-1399,0,0
191,47500,3893,-1380,-1592,-23832,-2115,26251,3893,-1380,-1592,0,0
192,47750,3858,-1153,-1772,-22490,-4298,27167,3858,-1153,-1772,0,0
193,48000,3803,-916,-1939,-21008,-6457,27915,3803,-916,-1939,0,0
194,48250,3727,-671,-2092,-19395,-8577,28491,3727,-671,-2092,0,0
195,48500,3625,-424,-2234,-17661,-10644,28891,3625,-424,-2234,0,0
196,48750,3498,-177,-2366,-15818,-12649,29116,3498,-177,-2366,0,0
197,49000,3344,67,-2486,-13879,-14575,29161,3344,67,-2486,0,0
198,49250,3169,310,-2592,-11853,-16415,29029,3169,310,-2592,0,0
199,49500,2975,552,-2681,-9752,-18155,28718,2975,552,-2681,0,0
200,49750,2763,791,-2753,-7592,-19777,28224,2763,791,-2753,0,0
201,50000,2537,1028,-2806,-5382,-21281,27557,2537,1028,-2806,0,0
202,50250,2301,1262,-2837,-3142,-22649,26719,2301,1262,-2837,0,0
203,50500,2053,1491,-2849,-882,-23878,25716,2053,1491,-2849,0,0
204,50750,1790,1710,-2844,1387,-24962,24554,1790,1710,-2844,0,0
205,51000,1513,1915,-2825,3648,-25894,23240,1513,1915,-2825,0,0
206,51250,1221,2105,-2792,5887,-26666,21783,1221,2105,-2792,0,0
207,51500,919,2279,-2744,8089,-27274,20193,919,2279,-2744,0,0
208,51750,613,2439,-2679,10237,-27712,18480,613,2439,-2679,0,0
209,52000,305,2587,-2594,12324,-27980,16653,305,2587,-2594,0,0
210,52250,1,2722,-2491,14334,-28075,14722,1,2722,-2491,0,0
211,52500,-300,2844,-2369,16256,-27996,12701,-300,2844,-2369,0,0
212,52750,-596,2951,-2230,18080,-27746,10600,-596,2951,-2230,0,0
213,53000,-891,3038,-2080,19790,-27323,8435,-891,3038,-2080,0,0
214,53250,-1188,3100,-1922,21382,-26737,6218,-1188,3100,-1922,0,0
215,53500,-1481,3141,-1755,22843,-25986,3963,-1481,3141,-1755,0,0
216,53750,-1767,3160,-1578,24162,-25073,1683,-1767,3160,-1578,0,0
217,54000,-2039,3162,-1390,25333,-24008,-607,-2039,3162,-1390,0,0
218,54250,-2296,3148,-1191,26349,-22794,-2894,-2296,3148,-1191,0,0
219,54500,-2534,3118,-982,27204,-21441,-5163,-2534,3118,-982,0,0
220,54750,-2754,3071,-764,27892,-19958,-7400,-2754,3071,-764,0,0
221,55000,-2956,3005,-541,28405,-18349,-9590,-2956,3005,-541,0,0
222,55250,-3144,2917,-318,28740,-16624,-11722,-3144,2917,-318,0,0
223,55500,-3316,2808,-96,28898,-14796,-13781,-3316,2808,-96,0,0
224,55750,-3471,2679,125,28877,-12877,-15756,-3471,2679,125,0,0
225,56000,-3605,2533,344,28680,-10880,-17633,-3605,2533,344,0,0
226,56250,-3715,2374,564,28312,-8819,-19404,-3715,2374,564,0,0
227,56500,-3798,2204,782,27769,-6704,-21055,-3798,2204,782,0,0
228,56750,-3855,2022,998,27054,-4546,-22578,-3855,2022,998,0,0
229,57000,-3887,1829,1208,26168,-2359,-23957,-3887,1829,1208,0,0
230,57250,-3895,1623,1411,25120,-158,-25188,-3895,1623,1411,0,0
231,57500,-3882,1406,1603,23918,2045,-26265,-3882,1406,1603,0,0
232,57750,-3848,1176,1782,22568,4235,-27180,-3848,1176,1782,0,0
233,58000,-3793,938,1949,21080,6399,-27928,-3793,938,1949,0,0
234,58250,-3715,694,2104,19462,8524,-28504,-3715,694,2104,0,0
235,58500,-3611,448,2247,17725,10595,-28904,-3611,448,2247,0,0
236,58750,-3481,202,2380,15877,12599,-29123,-3481,202,2380,0,0
237,59000,-3327,-43,2499,13933,14525,-29163,-3327,-43,2499,0,0
238,59250,-3155,-288,2604,11906,16366,-29032,-3155,-288,2604,0,0
239,59500,-2962,-532,2691,9804,18105,-28718,-2962,-532,2691,0,0
240,59750,-2755,-775,2760,7639,19732,-28225,-2755,-775,2760,0,0
241,60000,-2532,-1015,2810,5427,21238,-27558,-2532,-1015,2810,0,0
242,60250,-2295,-1250,2842,3181,22611,-26720,-2295,-1250,2842,0,0
243,60500,-2043,-1476,2857,915,23847,-25716,-2043,-1476,2857,0,0
244,60750,-1776,-1692,2855,-1356,24934,-24555,-1776,-1692,2855,0,0
245,61000,-1497,-1896,2838,-3617,25866,-23243,-1497,-1896,2838,0,0
246,61250,-1207,-2086,2805,-5855,26642,-21790,-1207,-2086,2805,0,0
247,61500,-908,-2263,2754,-8058,27250,-20200,-908,-2263,2754,0,0
248,61750,-603,-2426,2687,-10213,27692,-18483,-603,-2426,2687,0,0
249,62000,-296,-2575,2602,-12303,27959,-16652,-296,-2575,2602,0,0
250,62250,7,-2711,2497,-14313,28054,-14722,7,-2711,2497,0,0
251,62500,311,-2832,2377,-16243,27979,-12696,311,-2832,2377,0,0
252,62750,610,-2937,2240,-18069,27728,-10593,610,-2937,2240,0,0
253,63000,908,-3022,2092,-19783,27308,-8427,908,-3022,2092,0,0
254,63250,1206,-3084,1935,-21375,26723,-6210,1206,-3084,1935,0,0
255,63500,1499,-3124,1768,-22835,25972,-3956,1499,-3124,1768,0,0
256,63750,1782,-3146,1589,-24156,25062,-1677,1782,-3146,1589,0,0
257,64000,2052,-3151,1400,-25327,23996,613,2052,-3151,1400,0,0
258,64250,2306,-3138,1199,-26342,22782,2898,2306,-3138,1199,0,0
259,64500,2543,-3108,989,-27194,21428,5167,2543,-3108,989,0,0
260,64750,2764,-3059,772,-27877,19940,7404,2764,-3059,772,0,0
261,65000,2969,-2991,551,-28389,18329,9595,2969,-2991,551,0,0
262,65250,3158,-2902,329,-28726,16606,11726,3158,-2902,329,0,0
263,65500,3330,-2794,106,-28887,14782,13785,3330,-2794,106,0,0
264,65750,3484,-2667,-116,-28872,12867,15761,3484,-2667,-116,0,0
265,66000,3616,-2523,-336,-28678,10873,17638,3616,-2523,-336,0,0
266,66250,3725,-2365,-556,-28308,8813,19407,3725,-2365,-556,0,0
267,66500,3808,-2194,-774,-27761,6697,21055,3808,-2194,-774,0,0
268,66750,3865,-2011,-989,-27043,4539,22574,3865,-2011,-989,0,0
269,67000,3897,-1817,-1199,-26156,2352,23953,3897,-1817,-1199,0,0
270,67250,3905,-1612,-1402,-25109,150,25185,3905,-1612,-1402,0,0
271,67500,3892,-1394,-1593,-23907,-2051,26261,3892,-1394,-1593,0,0
272,67750,3858,-1166,-1773,-22558,-4241,27176,3858,-1166,-1773,0,0
273,68000,3802,-928,-1941,-21069,-6406,27925,3802,-928,-1941,0,0
274,68250,3722,-686,-2097,-19453,-8529,28500,3722,-686,-2097,0,0
275,68500,3619,-440,-2240,-17717,-10598,28900,3619,-440,-2240,0,0
276,68750,3490,-193,-2372,-15872,-12602,29121,3490,-193,-2372,0,0
277,69000,3339,53,-2490,-13928,-14531,29164,3339,53,-2490,0,0
278,69250,3161,294,-2600,-11901,-16382,29043,3161,294,-2600,0,0
279,69500,2968,538,-2688,-9798,-18119,28727,2968,538,-2688,0,0
280,69750,2760,781,-2756,-7634,-19746,28233,2760,781,-2756,0,0
281,70000,2538,1021,-2806,-5422,-21249,27565,2538,1021,-2806,0,0
282,70250,2301,1256,-2838,-3177,-22622,26727,2301,1256,-2838,0,0
283,70500,2049,1482,-2853,-913,-23856,25725,2049,1482,-2853,0,0
284,70750,1782,1698,-2852,1357,-24944,24565,1782,1698,-2852,0,0
285,71000,1501,1901,-2835,3619,-25878,23253,1501,1901,-2835,0,0
286,71250,1210,2091,-2803,5860,-26655,21799,1210,2091,-2803,0,0
287,71500,911,2267,-2752,8064,-27265,20208,911,2267,-2752,0,0
288,71750,608,2432,-2684,10220,-27708,18493,608,2432,-2684,0,0
289,72000,303,2583,-2598,12311,-27978,16664,303,2583,-2598,0,0
290,72250,-1,2720,-2493,14330,-28079,14731,-1,2720,-2493,0,0
291,72500,-304,2842,-2373,16260,-28007,12708,-304,2842,-2373,0,0
292,72750,-606,2945,-2238,18089,-27761,10606,-606,2945,-2238,0,0
293,73000,-906,3030,-2091,19809,-27346,8440,-906,3030,-2091,0,0
294,73250,-1203,3093,-1933,21406,-26762,6221,-1203,3093,-1933,0,0
295,73500,-1493,3136,-1764,22870,-26012,3963,-1493,3136,-1764,0,0
296,73750,-1776,3157,-1586,24187,-25103,1689,-1776,3157,-1586,0,0
297,74000,-2047,3161,-1398,25355,-24039,-597,-2047,3161,-1398,0,0
298,74250,-2302,3147,-1198,26367,-22825,-2880,-2302,3147,-1198,0,0
299,74500,-2540,3116,-989,27218,-21472,-5145,-2540,3116,-989,0,0
