DZL_TestBed,0,1999
12,12A,0D
1,in_IRMXUADVANCED1.VolSv1_A.instMag,,,A,1.065821241E-01,0,0,-32768,32767,1,1,P
2,in_IRMXUADVANCED1.VolSv1_B.instMag,,,A,8.984891663E-02,0,0,-32768,32767,1,1,P
3,in_IRMXUADVANCED1.VolSv1_C.instMag,,,A,1.013107366E-01,0,0,-32768,32767,1,1,P
4,in_URMXUADVANCED1.VolSv1_A.instMag,,,V,6.503768235E+00,0,0,-32768,32767,1,1,P
5,in_URMXUADVANCED1.VolSv1_B.instMag,,,V,6.504872940E+00,0,0,-32768,32767,1,1,P
6,in_URMXUADVANCED1.VolSv1_C.instMag,,,V,6.561213823E+00,0,0,-32768,32767,1,1,P
7,in_IRMXUADVANCED2.VolSv1_A.instMag,,,A,2.271540377E+00,0,0,-32768,32767,1,1,P
8,in_IRMXUADVANCED2.VolSv1_B.instMag,,,A,1.759565816E+00,0,0,-32768,32767,1,1,P
9,in_IRMXUADVANCED2.VolSv1_C.instMag,,,A,2.323342202E+00,0,0,-32768,32767,1,1,P
10,in_URMXUADVANCED2.VolSv1_A.instMag,,,V,6.524522314E+00,0,0,-32768,32767,1,1,P
11,in_URMXUADVANCED2.VolSv1_B.instMag,,,V,6.515703974E+00,0,0,-32768,32767,1,1,P
12,in_URMXUADVANCED2.VolSv1_C.instMag,,,V,6.551439338E+00,0,0,-32768,32767,1,1,P
50.0
1
4000,20010
27/05/2021,11:03:15.257000
27/05/2021,11:03:15.257000
ASCII
1
1,0,-620,4226,-3096,3155,-27411,24048,45,-224,126,4940,-28111,23038
2,250,-898,4293,-2863,5472,-28254,22595,58,-227,115,7236,-28834,21491
3,500,-1168,4335,-2617,7770,-28964,21036,71,-227,103,9499,-29402,19832
4,750,-1429,4352,-2360,10024,-29497,19350,83,-227,91,11703,-29787,18051
5,1000,-1678,4344,-2093,12214,-29838,17539,94,-225,79,13833,-29983,16158
6,1250,-1915,4309,-1817,14325,-29989,15616,104,-221,66,15877,-29992,14167
7,1500,-2136,4248,-1535,16348,-29956,13599,114,-216,53,17823,-29817,12091
8,1750,-2342,4160,-1246,18270,-29739,11499,123,-210,40,19659,-29458,9942
9,2000,-2531,4048,-955,20080,-29340,9330,131,-203,27,21374,-28917,7735
10,2250,-2701,3911,-661,21766,-28760,7105,138,-194,14,22958,-28199,5481
11,2500,-2852,3751,-368,23318,-28002,4837,144,-185,1,24400,-27306,3194
12,2750,-2947,3611,-220,24701,-27096,2847,148,-176,0,25712,-26224,720
13,3000,-2986,3491,-213,25940,-26015,1033,148,-169,0,26855,-24991,-1568
14,3250,-2988,3369,-281,27049,-24744,-924,147,-161,0,27823,-23614,-3823
15,3500,-2969,3226,-353,28002,-23309,-3160,146,-152,0,28618,-22092,-6090
16,3750,-2938,3053,-392,28766,-21748,-5581,143,-142,0,29237,-20434,-8345
17,4000,-2895,2852,-393,29333,-20071,-8013,140,-130,0,29675,-18650,-10553
18,4250,-2836,2629,-371,29714,-18277,-10336,136,-118,0,29930,-16752,-12691
19,4500,-2759,2389,-344,29918,-16363,-12509,131,-105,0,30000,-14751,-14744
20,4750,-2661,2136,-321,29948,-14338,-14552,125,-91,0,29886,-12657,-16703
21,5000,-2543,1871,-306,29799,-12219,-16494,118,-77,0,29588,-10485,-18561
22,5250,-2407,1596,-294,29465,-10026,-18352,110,-62,0,29108,-8249,-20310
23,5500,-2254,1311,-282,28946,-7773,-20120,102,-47,0,28448,-5962,-21938
24,5750,-2086,1017,-267,28247,-5476,-21781,93,-31,0,27613,-3638,-23437
25,6000,-1904,716,-247,27371,-3146,-23313,83,-16,0,26606,-1293,-24795
26,6250,-1709,411,-225,26328,-798,-24699,73,0,0,25436,1062,-26005
27,6500,-1544,257,-216,25152,1249,-25956,64,0,0,24084,3574,-27051
28,6750,-1413,247,-205,23814,3096,-27121,57,0,0,22595,5872,-27939
29,7000,-1296,312,-180,22296,5047,-28161,51,0,0,20977,8119,-28664
30,7250,-1176,384,-141,20626,7234,-28990,44,0,0,19231,10350,-29221
31,7500,-1039,423,-97,18843,9578,-29561,36,0,0,17368,12538,-29601
32,7750,-883,423,-57,16967,11922,-29885,28,0,0,15398,14653,-29798
33,8000,-714,398,-24,14994,14147,-30000,20,0,0,13336,16672,-29773
34,8250,-538,364,2,12924,16204,-29938,11,0,0,11191,18581,-29526
35,8500,-358,333,26,10763,18103,-29718,2,0,0,8975,20370,-29095
36,8750,-177,310,50,8530,19868,-29340,-7,0,0,6703,22033,-28489
37,9000,3,291,76,6242,21518,-28792,-16,0,0,4390,23561,-27709
38,9250,182,273,105,3919,23054,-28061,-25,0,0,2049,24945,-26757
39,9500,360,253,135,1574,24463,-27147,-33,0,0,-303,26177,-25640
40,9750,537,229,163,-779,25730,-26056,-41,0,0,-2653,27248,-24365
41,10000,537,229,163,-779,25730,-26056,-41,0,0,-2653,27248,-24365
42,10000,712,202,190,-3127,26840,-24800,-50,0,0,-4987,28151,-22938
43,10000,712,202,190,-3127,26840,-24800,-50,0,0,-4987,28151,-22938
44,10000,712,202,190,-3127,26840,-24800,-50,0,0,-4987,28151,-22938
45,10250,928,13,230,-5485,28099,-23364,-60,16,0,-7265,28708,-21377
46,10500,1141,-172,252,-7774,29071,-21742,-69,17,0,-9534,29454,-19674
47,10750,1343,-333,263,-9996,29626,-20010,-78,21,0,-11738,29794,-17849
48,11000,1528,-463,273,-12174,29898,-18217,-87,26,0,-13863,29953,-15916
49,11250,1697,-566,286,-14296,30000,-16351,-94,30,0,-15906,29952,-13889
50,11500,1849,-644,302,-16332,29954,-14383,-101,32,0,-17853,29777,-11777
51,11750,1984,-698,319,-18259,29744,-12308,-106,34,0,-19691,29420,-9591
52,12000,2101,-728,334,-20065,29354,-10140,-111,33,0,-21406,28881,-7345
53,12250,2199,-733,347,-21746,28778,-7902,-115,32,0,-22989,28163,-5053
54,12500,2278,-713,355,-23295,28022,-5617,-117,29,0,-24430,27271,-2729
55,12750,2339,-668,360,-24702,27092,-3300,-119,26,0,-25721,26211,-389
56,13000,2379,-600,364,-25958,25994,-968,-120,21,0,-26853,24989,1954
57,13250,2399,-508,365,-27054,24737,1369,-120,15,0,-27820,23613,4284
58,13500,2399,-395,364,-27982,23327,3697,-119,7,0,-28615,22091,6587
59,13750,2379,-261,362,-28738,21774,6004,-117,-1,0,-29233,20433,8851
60,14000,2339,-108,357,-29316,20086,8274,-114,-10,0,-29672,18650,11059
61,14250,2280,65,350,-29713,18275,10494,-110,-20,0,-29927,16751,13200
62,14500,2201,255,340,-29927,16351,12649,-105,-30,0,-29998,14748,15259
63,14750,2104,460,329,-29957,14327,14726,-99,-42,0,-29884,12655,17225
64,15000,1988,680,315,-29802,12213,16712,-92,-54,0,-29586,10484,19084
65,15250,1855,912,300,-29463,10025,18594,-85,-66,0,-29106,8248,20825
66,15500,1706,1156,283,-28942,7775,20362,-76,-79,0,-28446,5961,22438
67,15750,1542,1408,263,-28243,5477,22005,-67,-92,0,-27610,3637,23913
68,16000,1363,1668,243,-27370,3145,23512,-58,-106,0,-26605,1291,25240
69,16250,1171,1933,221,-26328,794,24874,-48,-120,0,-25435,-1064,26412
70,16500,967,2202,197,-25124,-1562,26082,-37,-133,0,-24109,-3411,27421
71,16750,752,2472,172,-23764,-3908,27130,-26,-147,0,-22633,-5738,28261
72,17000,528,2742,147,-22258,-6231,28011,-14,-161,0,-21019,-8029,28927
73,17250,296,3010,120,-20615,-8514,28718,-2,-174,0,-19275,-10271,29414
74,17500,57,3274,92,-18845,-10746,29249,10,-187,0,-17412,-12450,29720
75,17750,-186,3532,64,-16958,-12911,29600,22,-200,0,-15441,-14552,29843
76,18000,-433,3782,36,-14967,-14996,29768,34,-212,0,-13376,-16564,29782
77,18250,-681,4023,7,-12883,-16989,29752,46,-223,0,-11228,-18475,29537
78,18500,-930,4252,-21,-10720,-18877,29553,59,-234,0,-9010,-20271,29110
79,18750,-1177,4468,-50,-8491,-20649,29172,71,-244,0,-6738,-21942,28504
80,19000,-1421,4671,-78,-6210,-22293,28611,82,-253,0,-4423,-23478,27722
81,19250,-1661,4857,-106,-3890,-23800,27873,94,-261,0,-2082,-24870,26769
82,19500,-1895,5026,-133,-1546,-25161,26964,105,-269,0,273,-26108,25651
83,19750,-2121,5176,-159,807,-26366,25888,116,-275,0,2626,-27185,24375
84,20000,-2121,5176,-159,807,-26366,25888,116,-275,0,2626,-27185,24375
85,20000,-2339,5307,-184,3156,-27408,24653,126,-280,0,4962,-28095,22949
86,20000,-2339,5307,-184,3156,-27408,24653,126,-280,0,4962,-28095,22949
87,20250,-2595,5359,-18,5518,-28249,22853,138,-281,-16,7240,-28860,21605
88,20500,-2847,5380,188,7810,-28951,20969,150,-281,-21,9509,-29411,19704
89,20750,-3090,5375,413,10033,-29496,19195,160,-279,-30,11712,-29787,17919
90,21000,-3320,5346,645,12210,-29843,17421,171,-276,-40,13837,-29987,16028
91,21250,-3538,5290,884,14332,-29986,15533,181,-271,-52,15878,-30000,14016
92,21500,-3741,5208,1131,16368,-29942,13512,189,-265,-63,17824,-29825,11906
93,21750,-3930,5099,1387,18295,-29721,11386,198,-258,-75,19661,-29466,9720
94,22000,-4102,4966,1649,20103,-29323,9186,205,-250,-87,21376,-28926,7474
95,22250,-4257,4807,1915,21785,-28746,6934,211,-240,-99,22958,-28208,5183
96,22500,-4393,4626,2183,23335,-27990,4643,217,-229,-111,24399,-27316,2861
97,22750,-4508,4422,2451,24744,-27059,2324,221,-217,-123,25689,-26256,522
98,23000,-4604,4196,2718,26000,-25960,-8,225,-204,-134,26822,-25034,-1821
99,23250,-4678,3949,2981,27096,-24702,-2341,227,-190,-146,27789,-23657,-4153
100,23500,-4731,3684,3239,28025,-23292,-4660,228,-175,-157,28584,-22135,-6459
101,23750,-4762,3402,3489,28781,-21739,-6950,228,-160,-168,29204,-20476,-8726
102,24000,-4770,3104,3730,29359,-20051,-9197,228,-143,-178,29643,-18691,-10939
103,24250,-4756,2792,3961,29756,-18240,-11388,226,-126,-188,29900,-16790,-13084
104,24500,-4719,2468,4180,29971,-16316,-13508,223,-109,-197,29972,-14787,-15149
105,24750,-4660,2134,4385,30000,-14291,-15544,219,-91,-205,29860,-12692,-17120
106,25000,-4579,1792,4574,29845,-12178,-17485,214,-73,-213,29563,-10519,-18986
107,25250,-4476,1443,4747,29505,-9990,-19318,208,-54,-219,29084,-8281,-20735
108,25500,-4352,1090,4902,28984,-7741,-21032,200,-36,-225,28426,-5992,-22356
109,25750,-4208,735,5038,28284,-5443,-22617,192,-17,-230,27593,-3666,-23839
110,26000,-4044,380,5154,27410,-3113,-24061,184,1,-234,26589,-1317,-25175
111,26250,-3862,27,5249,26367,-762,-25358,174,20,-238,25422,1039,-26356
112,26500,-3662,-321,5322,25161,1592,-26498,163,37,-240,24097,3389,-27374
113,26750,-3445,-663,5373,23800,3938,-27474,152,55,-241,22625,5719,-28224
114,27000,-3214,-997,5401,22293,6258,-28281,140,72,-241,21013,8013,-28900
115,27250,-2968,-1321,5406,20648,8541,-28914,128,88,-240,19271,10257,-29398
116,27500,-2710,-1633,5388,18876,10770,-29368,115,103,-238,17410,12438,-29714
117,27750,-2442,-1930,5346,16988,12934,-29642,101,118,-235,15442,14543,-29847
118,28000,-2164,-2212,5281,14995,15017,-29732,88,131,-231,13379,16558,-29797
119,28250,-1878,-2476,5193,12909,17009,-29639,74,144,-226,11234,18471,-29562
120,28500,-1586,-2721,5083,10744,18895,-29364,59,156,-220,9019,20270,-29145
121,28750,-1291,-2946,4950,8513,20665,-28907,45,166,-213,6749,21944,-28549
122,29000,-992,-3149,4795,6229,22307,-28272,31,175,-205,4437,23482,-27777
123,29250,-693,-3329,4620,3907,23812,-27463,16,183,-196,2097,24876,-26833
124,29500,-396,-3485,4426,1562,25170,-26484,2,190,-186,-255,26117,-25724
125,29750,-101,-3616,4212,-794,26373,-25343,-12,195,-176,-2606,27196,-24457
126,30000,190,-3721,3982,-3145,27414,-24044,-25,199,-165,-4940,28108,-23038
127,30250,474,-3800,3735,-5476,28285,-22598,-38,202,-153,-7245,28846,-21478
128,30500,750,-3853,3473,-7773,28982,-21012,-51,203,-141,-9504,29407,-19785
129,30750,1016,-3878,3198,-10023,29501,-19297,-63,202,-128,-11705,29786,-17970
130,31000,1271,-3877,2911,-12210,29837,-17462,-75,201,-114,-13834,29982,-16045
131,31250,1513,-3848,2614,-14322,29990,-15520,-86,198,-101,-15877,29992,-14020
132,31500,1741,-3793,2308,-16346,29958,-13482,-96,193,-87,-17823,29818,-11910
133,31750,1954,-3712,1996,-18269,29741,-11361,-105,187,-73,-19658,29460,-9725
134,32000,2150,-3605,1679,-20080,29341,-9170,-113,180,-58,-21373,28920,-7481
135,32250,2327,-3472,1359,-21766,28760,-6923,-121,172,-44,-22955,28202,-5191
136,32500,2486,-3316,1038,-23319,28002,-4632,-127,162,-30,-24397,27311,-2869
137,32750,2625,-3136,718,-24727,27071,-2314,-133,152,-16,-25687,26250,-529
138,33000,2744,-2935,400,-25983,25973,20,-137,140,-2,-26820,25028,1815
139,33250,2840,-2712,87,-27079,24715,2353,-141,127,12,-27787,23652,4147
140,33500,2915,-2471,-221,-28008,23305,4671,-143,113,25,-28582,22129,6453
141,33750,2968,-2211,-520,-28764,21751,6961,-144,99,38,-29202,20471,8720
142,34000,2998,-1936,-809,-29343,20063,9208,-145,84,51,-29641,18686,10933
143,34250,3006,-1646,-1087,-29741,18251,11398,-144,68,62,-29898,16786,13078
144,34500,2990,-1343,-1352,-29955,16327,13518,-142,51,73,-29970,14782,15143
145,34750,2952,-1030,-1602,-29985,14302,15555,-139,34,84,-29857,12687,17114
146,35000,2892,-708,-1837,-29829,12189,17495,-134,17,93,-29561,10514,18980
147,35250,2810,-380,-2054,-29490,10001,19328,-129,0,102,-29082,8276,20729
148,35500,2707,-47,-2252,-28969,7751,21042,-123,-18,110,-28424,5987,22350
149,35750,2583,288,-2431,-28270,5454,22626,-116,-35,117,-27591,3661,23833
150,36000,2439,624,-2588,-27396,3123,24071,-108,-53,123,-26587,1313,25169
151,36250,2277,958,-2725,-26353,772,25367,-99,-70,128,-25420,-1044,26351
152,36500,2096,1288,-2839,-25147,-1583,26507,-90,-87,131,-24096,-3394,27369
153,36750,1899,1613,-2929,-23787,-3928,27483,-80,-103,134,-22623,-5723,28219
154,37000,1687,1929,-2997,-22280,-6249,28290,-69,-119,136,-21011,-8017,28895
155,37250,1460,2235,-3040,-20635,-8531,28923,-57,-134,137,-19269,-10261,29393
156,37500,1221,2530,-3060,-18863,-10761,29377,-45,-149,136,-17408,-12442,29709
157,37750,971,2810,-3056,-16975,-12925,29650,-32,-163,135,-15441,-14547,29842
158,38000,711,3076,-3027,-14982,-15009,29740,-20,-176,132,-13377,-16562,29792
159,38250,444,3324,-2975,-12897,-17000,29647,-6,-187,129,-11232,-18475,29557
160,38500,170,3553,-2900,-10732,-18886,29372,7,-198,124,-9017,-20273,29141
161,38750,-108,3762,-2802,-8501,-20656,28915,20,-208,119,-6747,-21947,28545
162,39000,-388,3950,-2682,-6218,-22299,28280,34,-216,112,-4435,-23486,27772
163,39250,-670,4115,-2541,-3896,-23804,27470,47,-223,105,-2095,-24880,26829
164,39500,-950,4257,-2380,-1550,-25162,26492,61,-229,97,257,-26120,25720
165,39750,-1228,4373,-2199,805,-26366,25350,74,-234,88,2608,-27199,24452
166,40000,-1502,4465,-2000,3155,-27406,24051,87,-237,78,4942,-28111,23034
167,40250,-1769,4530,-1785,5486,-28278,22605,99,-239,68,7246,-28850,21474
168,40500,-2029,4569,-1554,7784,-28975,21019,111,-239,57,9506,-29410,19781
169,40750,-2279,4581,-1309,10033,-29494,19303,122,-238,45,11707,-29789,17966
170,41000,-2518,4567,-1053,12220,-29830,17469,133,-236,33,13835,-29985,16041
171,41250,-2744,4526,-785,14332,-29983,15526,143,-232,21,15879,-29995,14017
172,41500,-2957,4458,-509,16356,-29951,13488,153,-227,8,17824,-29821,11906
173,41750,-3154,4365,-225,18279,-29735,11367,161,-221,-5,19660,-29463,9722
174,42000,-3334,4245,63,20089,-29334,9176,169,-213,-18,21374,-28923,7477
175,42250,-3497,4101,356,21776,-28754,6929,176,-204,-31,22957,-28205,5187
176,42500,-3641,3933,650,23328,-27995,4638,181,-194,-44,24398,-27313,2865
177,42750,-3765,3742,943,24736,-27064,2319,186,-183,-57,25689,-26253,525
178,43000,-3868,3529,1235,25992,-25967,-14,190,-170,-70,26821,-25031,-1818
179,43250,-3951,3296,1522,27088,-24709,-2347,193,-157,-82,27788,-23654,-4150
180,43500,-4011,3044,1804,28016,-23299,-4666,194,-143,-94,28584,-22132,-6456
181,43750,-4050,2774,2078,28772,-21745,-6956,195,-128,-106,29203,-20473,-8723
182,44000,-4066,2488,2343,29351,-20057,-9203,195,-112,-117,29643,-18688,-10936
183,44250,-4060,2188,2596,29749,-18246,-11393,193,-95,-128,29899,-16788,-13081
184,44500,-4031,1876,2837,29963,-16321,-13513,190,-79,-138,29971,-14784,-15146
185,44750,-3979,1553,3064,29992,-14297,-15550,187,-61,-147,29859,-12690,-17117
186,45000,-3906,1221,3276,29837,-12184,-17491,182,-43,-156,29562,-10516,-18983
187,45250,-3811,884,3470,29498,-9996,-19324,176,-26,-164,29083,-8279,-20732
188,45500,-3694,542,3646,28977,-7746,-21038,170,-8,-171,28425,-5990,-22353
189,45750,-3558,197,3802,28277,-5449,-22622,162,10,-176,27592,-3664,-23836
190,46000,-3401,-147,3939,27403,-3118,-24066,153,28,-181,26588,-1315,-25172
191,46250,-3226,-490,4053,26360,-768,-25363,144,46,-185,25421,1041,-26353
192,46500,-3033,-829,4146,25154,1587,-26502,134,63,-188,24097,3391,-27372
193,46750,-2824,-1161,4217,23793,3932,-27479,123,80,-190,22624,5721,-28222
194,47000,-2599,-1486,4264,22286,6253,-28286,111,97,-191,21012,8015,-28898
195,47250,-2361,-1800,4287,20642,8536,-28919,99,112,-191,19270,10259,-29395
196,47500,-2110,-2103,4287,18870,10766,-29373,87,127,-190,17410,12440,-29712
197,47750,-1848,-2391,4264,16981,12929,-29646,74,141,-188,15442,14545,-29845
198,48000,-1577,-2664,4216,14988,15013,-29737,60,155,-184,13379,16560,-29794
199,48250,-1298,-2919,4146,12903,17004,-29644,46,167,-180,11233,18473,-29560
200,48500,-1014,-3156,4052,10738,18890,-29368,33,178,-175,9018,20272,-29143
201,48750,-725,-3373,3936,8507,20660,-28911,19,188,-168,6748,21945,-28547
202,49000,-433,-3567,3798,6224,22303,-28276,5,197,-161,4436,23484,-27775
203,49250,-141,-3739,3640,3902,23808,-27467,-9,204,-153,2097,24878,-26831
204,49500,151,-3888,3461,1556,25166,-26488,-23,210,-144,-256,26118,-25722
205,49750,439,-4011,3263,-799,26369,-25346,-37,215,-134,-2606,27198,-24455
206,50000,723,-4109,3048,-3150,27410,-24048,-50,219,-124,-4941,28109,-23036
207,50250,1001,-4181,2816,-5481,28281,-22601,-63,221,-113,-7245,28848,-21476
208,50500,1270,-4226,2569,-7778,28979,-21016,-75,222,-101,-9505,29408,-19783
209,50750,1531,-4244,2309,-10028,29497,-19300,-87,221,-89,-11706,29788,-17968
210,51000,1779,-4236,2036,-12215,29834,-17466,-99,219,-76,-13834,29983,-16043
211,51250,2016,-4201,1753,-14327,29987,-15524,-109,216,-63,-15878,29994,-14019
212,51500,2238,-4139,1462,-16351,29954,-13486,-119,211,-50,-17823,29820,-11908
213,51750,2444,-4051,1164,-18274,29738,-11365,-128,205,-36,-19659,29462,-9724
214,52000,2634,-3937,860,-20085,29338,-9174,-136,197,-23,-21373,28922,-7479
215,52250,2806,-3799,553,-21771,28757,-6926,-143,189,-9,-22956,28204,-5189
216,52500,2959,-3636,245,-23323,27998,-4636,-149,179,5,-24397,27312,-2867
217,52750,3093,-3450,-62,-24732,27067,-2317,-155,168,19,-25688,26252,-527
218,53000,3205,-3243,-368,-25988,25970,17,-159,156,32,-26820,25029,1816
219,53250,3296,-3015,-669,-27083,24712,2350,-162,143,45,-27787,23653,4148
220,53500,3366,-2767,-964,-28012,23302,4668,-164,129,58,-28583,22131,6455
221,53750,3413,-2502,-1251,-28768,21748,6958,-165,114,70,-29202,20472,8721
222,54000,3438,-2221,-1528,-29347,20060,9205,-165,98,82,-29642,18687,10934
223,54250,3440,-1926,-1795,-29745,18248,11396,-164,82,93,-29898,16787,13079
224,54500,3419,-1618,-2048,-29959,16324,13516,-162,65,104,-29970,14783,15144
225,54750,3376,-1300,-2287,-29988,14299,15552,-158,48,114,-29858,12688,17116
226,55000,3310,-973,-2511,-29833,12186,17493,-154,31,123,-29561,10515,18981
227,55250,3223,-640,-2717,-29494,9998,19326,-149,13,131,-29083,8277,20730
228,55500,3115,-302,-2905,-28973,7749,21040,-142,-5,138,-28424,5988,22351
229,55750,2986,38,-3073,-28273,5451,22624,-135,-22,145,-27591,3663,23835
230,56000,2837,378,-3220,-27399,3120,24068,-127,-40,150,-26588,1314,25171
231,56250,2670,717,-3346,-26356,770,25365,-118,-58,155,-25420,-1042,26352
232,56500,2484,1052,-3450,-25151,-1585,26504,-108,-75,158,-24096,-3393,27370
233,56750,2282,1380,-3531,-23790,-3930,27481,-98,-91,160,-22623,-5722,28220
234,57000,2065,1701,-3589,-22283,-6251,28288,-86,-108,162,-21011,-8016,28896
235,57250,1834,2012,-3623,-20638,-8534,28920,-75,-123,162,-19269,-10260,29394
236,57500,1590,2310,-3633,-18866,-10764,29375,-62,-138,161,-17409,-12441,29710
237,57750,1335,2595,-3620,-16978,-12927,29648,-50,-152,160,-15441,-14546,29844
238,58000,1071,2864,-3582,-14985,-15011,29738,-36,-165,157,-13378,-16561,29793
239,58250,799,3116,-3522,-12900,-17002,29645,-23,-177,153,-11232,-18474,29559
240,58500,521,3350,-3438,-10735,-18889,29370,-9,-188,148,-9018,-20273,29142
241,58750,239,3563,-3331,-8504,-20658,28913,4,-198,142,-6747,-21946,28546
242,59000,-46,3754,-3203,-6221,-22301,28278,18,-206,135,-4435,-23485,27773
243,59250,-332,3923,-3053,-3899,-23806,27469,32,-214,127,-2096,-24879,26830
244,59500,-617,4068,-2884,-1553,-25164,26490,45,-220,119,256,-26119,25721
245,59750,-899,4188,-2695,802,-26368,25348,58,-224,110,2607,-27199,24453
246,60000,-1177,4283,-2488,3153,-27408,24050,71,-228,100,4942,-28110,23035
247,60250,-1448,4351,-2265,5484,-28280,22603,84,-230,89,7246,-28849,21475
248,60500,-1712,4394,-2027,7781,-28977,21017,96,-230,77,9505,-29409,19782
249,60750,-1966,4409,-1775,10030,-29495,19302,108,-230,66,11706,-29788,17967
250,61000,-2209,4398,-1510,12218,-29832,17467,119,-227,53,13835,-29984,16042
251,61250,-2439,4360,-1236,14330,-29985,15525,129,-224,41,15878,-29995,14017
252,61500,-2656,4295,-952,16354,-29953,13487,138,-219,28,17824,-29820,11907
253,61750,-2856,4205,-662,18277,-29736,11366,147,-213,14,19660,-29462,9722
254,62000,-3041,4088,-366,20087,-29336,9175,155,-205,1,21374,-28923,7478
255,62250,-3207,3947,-67,21773,-28755,6927,162,-196,-12,22957,-28205,5188
256,62500,-3355,3782,234,23326,-27997,4637,168,-186,-26,24398,-27313,2866
