EMTDC_Simulation , 1,1999
 7, 6A, 1D
 1, IphsA_W1E: A1,A,A1,kA,0.258164E-04,0.128772E-04, 0.0,-32768, 32767,     1.000000,1,S
 2, IphsB_W1E: A2,B,A2,kA,0.258010E-04,0.129075E-04, 0.0,-32768, 32767,     1.000000,1,S
 3, IphsC_W1E: A3,C,A3,kA,0.258175E-04,0.129289E-04, 0.0,-32768, 32767,     1.000000,1,S
 4, UphsA_W1E: A4,A,A4,kV,0.414234E-02,0.206426E-02, 0.0,-32768, 32767,     1.000000,1,S
 5, UphsB_W1E: A5,B,A5,kV,0.414277E-02,0.207160E-02, 0.0,-32768, 32767,     1.000000,1,S
 6, UphsC_W1E: A6,C,A6,kV,0.414397E-02,0.207379E-02, 0.0,-32768, 32767,     1.000000,1,S
 1, PosStVal: D1,,, 0
50
1
 4000,      8000
14/03/2022,16:09:52.000000    
14/03/2022,16:09:52.000000    
ASCII
1
         1,         0,     0,    -1,    -1,     0,    -1,    -1,0
         2,       250,    -1,    11,   -12,     0,   -30,    28,0
         3,       500,    -9,    87,   -79,    20,  -200,   178,0
         4,       750,   -31,   182,  -152,    67,  -347,   279,0
         5,      1000,   -70,   286,  -217,   134,  -504,   369,0
         6,      1250,  -125,   417,  -293,   227,  -681,   452,0
         7,      1500,  -200,   558,  -359,   338,  -796,   457,0
         8,      1750,  -294,   710,  -417,   464,  -966,   500,0
         9,      2000,  -409,   868,  -460,   613, -1130,   516,0
        10,      2250,  -544,  1029,  -485,   775, -1246,   469,0
        11,      2500,  -697,  1183,  -486,   950, -1389,   437,0
        12,      2750,  -868,  1341,  -473,  1137, -1492,   353,0
        13,      3000, -1055,  1488,  -433,  1329, -1579,   248,0
        14,      3250, -1257,  1625,  -369,  1529, -1673,   143,0
        15,      3500, -1470,  1753,  -283,  1731, -1709,   -24,0
        16,      3750, -1694,  1859,  -166,  1930, -1739,  -192,0
        17,      4000, -1925,  1953,   -28,  2127, -1756,  -373,0
        18,      4250, -2161,  2026,   135,  2317, -1715,  -603,0
        19,      4500, -2399,  2072,   326,  2495, -1672,  -825,0
        20,      4750, -2635,  2098,   537,  2663, -1597, -1067,0
        21,      5000, -2869,  2095,   773,  2814, -1476, -1339,0
        22,      5250, -3095,  2065,  1030,  2946, -1349, -1598,0
        23,      5500, -3311,  2007,  1304,  3058, -1180, -1879,0
        24,      5750, -3514,  1916,  1598,  3145,  -979, -2167,0
        25,      6000, -3701,  1795,  1905,  3207,  -765, -2442,0
        26,      6250, -3869,  1644,  2224,  3241,  -511, -2731,0
        27,      6500, -4016,  1460,  2555,  3245,  -237, -3008,0
        28,      6750, -4138,  1246,  2891,  3218,    55, -3273,0
        29,      7000, -4233,  1001,  3231,  3158,   380, -3538,0
        30,      7250, -4299,   726,  3572,  3064,   713, -3777,0
        31,      7500, -4334,   424,  3908,  2937,  1067, -4004,0
        32,      7750, -4335,    93,  4240,  2774,  1439, -4213,0
        33,      8000, -4301,  -263,  4562,  2577,  1811, -4388,0
        34,      8250, -4232,  -640,  4870,  2346,  2200, -4545,0
        35,      8500, -4125, -1040,  5162,  2080,  2592, -4672,0
        36,      8750, -3980, -1457,  5434,  1782,  2977, -4760,0
        37,      9000, -3796, -1890,  5683,  1453,  3370, -4823,0
        38,      9250, -3574, -2335,  5906,  1094,  3749, -4843,0
        39,      9500, -3314, -2788,  6099,   707,  4118, -4826,0
        40,      9750, -3016, -3247,  6260,   295,  4480, -4775,0
        41,     10000, -2682, -3708,  6386,  -141,  4817, -4677,0
        42,     10250, -2312, -4166,  6474,  -596,  5136, -4540,0
        43,     10500, -1908, -4619,  6523, -1069,  5433, -4364,0
        44,     10750, -1473, -5062,  6530, -1556,  5696, -4141,0
        45,     11000, -1008, -5491,  6494, -2052,  5933, -3882,0
        46,     11250,  -516, -5903,  6414, -2556,  6135, -3579,0
        47,     11500,     1, -6293,  6287, -3062,  6296, -3234,0
        48,     11750,   538, -6658,  6115, -3567,  6422, -2857,0
        49,     12000,  1093, -6995,  5896, -4067,  6503, -2438,0
        50,     12250,  1661, -7298,  5630, -4557,  6539, -1984,0
        51,     12500,  2240, -7565,  5319, -5033,  6533, -1502,0
        52,     12750,  2824, -7794,  4963, -5492,  6475,  -985,0
        53,     13000,  3411, -7979,  4562, -5929,  6371,  -444,0
        54,     13250,  3995, -8121,  4119, -6340,  6219,   119,0
        55,     13500,  4572, -8215,  3636, -6721,  6013,   706,0
        56,     13750,  5138, -8259,  3114, -7068,  5761,  1305,0
        57,     14000,  5688, -8252,  2557, -7379,  5459,  1916,0
        58,     14250,  6218, -8192,  1967, -7648,  5107,  2539,0
        59,     14500,  6723, -8078,  1348, -7874,  4710,  3160,0
        60,     14750,  7200, -7910,   704, -8052,  4267,  3783,0
        61,     15000,  7643, -7687,    38, -8182,  3778,  4400,0
        62,     15250,  8049, -7409,  -646, -8259,  3251,  5004,0
        63,     15500,  8414, -7076, -1343, -8283,  2684,  5595,0
        64,     15750,  8734, -6690, -2049, -8251,  2081,  6166,0
        65,     16000,  9006, -6252, -2759, -8163,  1448,  6711,0
        66,     16250,  9227, -5764, -3468, -8018,   784,  7229,0
        67,     16500,  9393, -5227, -4171, -7815,    98,  7712,0
        68,     16750,  9503, -4645, -4863, -7553,  -609,  8157,0
        69,     17000,  9555, -4019, -5539, -7235, -1332,  8562,0
        70,     17250,  9545, -3354, -6194, -6860, -2064,  8919,0
        71,     17500,  9474, -2654, -6824, -6430, -2803,  9228,0
        72,     17750,  9341, -1921, -7422, -5946, -3543,  9484,0
        73,     18000,  9144, -1160, -7985, -5411, -4278,  9684,0
        74,     18250,  8884,  -377, -8508, -4827, -5003,  9825,0
        75,     18500,  8560,   425, -8986, -4197, -5714,  9906,0
        76,     18750,  8175,  1240, -9415, -3525, -6404,  9924,0
        77,     19000,  7729,  2063, -9792, -2814, -7069,  9878,0
        78,     19250,  7224,  2889,-10112, -2068, -7704,  9767,0
        79,     19500,  6662,  3711,-10372, -1292, -8303,  9590,0
        80,     19750,  6046,  4526,-10570,  -490, -8862,  9348,0
        81,     20000,  5379,  5326,-10703,   332, -9375,  9039,0
        82,     20250,  4664,  6107,-10768,  1170, -9839,  8665,0
        83,     20500,  3905,  6862,-10764,  2018,-10250,  8228,0
        84,     20750,  3107,  7586,-10690,  2871,-10603,  7729,0
        85,     21000,  2274,  8275,-10544,  3722,-10895,  7170,0
        86,     21250,  1410,  8921,-10327,  4567,-11123,  6554,0
        87,     21500,   522,  9522,-10039,  5399,-11285,  5883,0
        88,     21750,  -386, 10071, -9680,  6212,-11377,  5163,0
        89,     22000, -1308, 10564, -9251,  7001,-11398,  4395,0
        90,     22250, -2237, 10997, -8754,  7760,-11347,  3585,0
        91,     22500, -3169, 11366, -8192,  8483,-11222,  2737,0
        92,     22750, -4096, 11668, -7566,  9165,-11023,  1857,0
        93,     23000, -5013, 11899, -6880,  9801,-10750,   949,0
        94,     23250, -5914, 12057, -6137, 10385,-10404,    19,0
        95,     23500, -6791, 12140, -5342, 10913, -9985,  -927,0
        96,     23750, -7640, 12145, -4498, 11380, -9496, -1883,0
        97,     24000, -8454, 12072, -3611, 11782, -8938, -2844,0
        98,     24250, -9228, 11919, -2686, 12116, -8314, -3801,0
        99,     24500, -9955, 11687, -1727, 12379, -7628, -4750,0
       100,     24750,-10630, 11376,  -741, 12566, -6881, -5684,0
       101,     25000,-11247, 10987,   266, 12677, -6079, -6596,0
       102,     25250,-11803, 10520,  1287, 12708, -5226, -7481,0
       103,     25500,-12292,  9979,  2318, 12660, -4326, -8332,0
       104,     25750,-12711,  9365,  3350, 12529, -3385, -9142,0
       105,     26000,-13055,  8682,  4377, 12318, -2409, -9906,0
       106,     26250,-13322,  7932,  5393, 12024, -1402,-10619,0
       107,     26500,-13507,  7120,  6390, 11650,  -373,-11274,0
       108,     26750,-13610,  6250,  7362, 11197,   674,-11868,0
       109,     27000,-13629,  5327,  8303, 10665,  1732,-12394,0
       110,     27250,-13561,  4357,  9205, 10059,  2793,-12849,0
       111,     27500,-13406,  3344, 10062,  9380,  3852,-13228,0
       112,     27750,-13165,  2295, 10869,  8632,  4901,-13529,0
       113,     28000,-12837,  1217, 11619,  7819,  5932,-13748,0
       114,     28250,-12424,   115, 12307,  6945,  6940,-13883,0
       115,     28500,-11927, -1003, 12927,  6016,  7918,-13931,0
       116,     28750,-11348, -2131, 13475,  5036,  8858,-13891,0
       117,     29000,-10690, -3261, 13946,  4012,  9754,-13763,0
       118,     29250, -9956, -4385, 14337,  2948, 10600,-13545,0
       119,     29500, -9150, -5498, 14643,  1852, 11390,-13239,0
       120,     29750, -8277, -6591, 14861,   731, 12117,-12846,0
       121,     30000, -7340, -7657, 14990,  -410, 12777,-12365,0
       122,     30250, -6345, -8689, 15027, -1561, 13364,-11801,0
       123,     30500, -5299, -9680, 14971, -2718, 13874,-11154,0
       124,     30750, -4207,-10623, 14821, -3871, 14302,-10429,0
       125,     31000, -3075,-11512, 14577, -5014, 14644, -9630,0
       126,     31250, -1910,-12339, 14240, -6139, 14899, -8759,0
       127,     31500,  -720,-13100, 13811, -7238, 15062, -7823,0
       128,     31750,   488,-13789, 13290, -8305, 15132, -6827,0
       129,     32000,  1708,-14400, 12681, -9332, 15107, -5775,0
       130,     32250,  2930,-14928, 11987,-10312, 14986, -4675,0
       131,     32500,  4148,-15370, 11211,-11238, 14769, -3533,0
       132,     32750,  5353,-15721, 10357,-12103, 14457, -2356,0
       133,     33000,  6538,-15979,  9429,-12902, 14050, -1150,0
       134,     33250,  7695,-16140,  8434,-13629, 13550,    77,0
       135,     33500,  8816,-16203,  7375,-14278, 12959,  1316,0
       136,     33750,  9894,-16166,  6260,-14844, 12280,  2561,0
       137,     34000, 10921,-16028,  5096,-15323, 11516,  3803,0
       138,     34250, 11891,-15790,  3888,-15711, 10671,  5035,0
       139,     34500, 12797,-15452,  2644,-16004,  9751,  6249,0
       140,     34750, 13632,-15014,  1371,-16200,  8759,  7436,0
       141,     35000, 14390,-14479,    79,-16296,  7702,  8588,0
       142,     35250, 15066,-13849, -1227,-16291,  6586,  9699,0
       143,     35500, 15655,-13128, -2537,-16183,  5417, 10760,0
       144,     35750, 16152,-12318, -3843,-15973,  4202, 11765,0
       145,     36000, 16553,-11424, -5137,-15661,  2948, 12706,0
       146,     36250, 16854,-10452, -6410,-15247,  1664, 13576,0
       147,     36500, 17053, -9406, -7655,-14734,   356, 14370,0
       148,     36750, 17148, -8292, -8863,-14123,  -966, 15082,0
       149,     37000, 17137, -7117,-10026,-13419, -2296, 15707,0
       150,     37250, 17019, -5888,-11136,-12623, -3623, 16239,0
       151,     37500, 16794, -4611,-12187,-11742, -4941, 16675,0
       152,     37750, 16463, -3295,-13170,-10778, -6240, 17010,0
       153,     38000, 16026, -1948,-14079, -9738, -7512, 17243,0
       154,     38250, 15485,  -578,-14908, -8628, -8749, 17370,0
       155,     38500, 14843,   807,-15651, -7454, -9942, 17389,0
       156,     38750, 14104,  2199,-16302, -6223,-11084, 17300,0
       157,     39000, 13270,  3588,-16856, -4943,-12167, 17103,0
       158,     39250, 12347,  4965,-17310, -3620,-13184, 16797,0
       159,     39500, 11339,  6322,-17659, -2263,-14127, 16383,0
       160,     39750, 10253,  7651,-17900,  -880,-14990, 15864,0
       161,     40000,  9093,  8942,-18031,   520,-15767, 15241,0
       162,     40250,  7868, 10187,-18050,  1928,-16452, 14519,0
       163,     40500,  6584, 11378,-17957,  3336,-17041, 13699,0
       164,     40750,  5249, 12508,-17750,  4735,-17528, 12788,0
       165,     41000,  3871, 13567,-17431,  6116,-17910, 11789,0
       166,     41250,  2459, 14550,-17001,  7470,-18183, 10709,0
       167,     41500,  1019, 15449,-16460,  8788,-18345,  9554,0
       168,     41750,  -437, 16259,-15813, 10061,-18394,  8330,0
       169,     42000, -1902, 16973,-15062, 11282,-18330,  7045,0
       170,     42250, -3365, 17586,-14211, 12442,-18150,  5706,0
       171,     42500, -4819, 18093,-13264, 13534,-17856,  4321,0
       172,     42750, -6253, 18492,-12228, 14549,-17449,  2899,0
       173,     43000, -7659, 18777,-11107, 15482,-16930,  1448,0
       174,     43250, -9028, 18947, -9909, 16325,-16302,   -23,0
       175,     43500,-10350, 19000, -8640, 17073,-15567, -1505,0
       176,     43750,-11617, 18935, -7308, 17719,-14731, -2988,0
       177,     44000,-12821, 18751, -5920, 18260,-13796, -4463,0
       178,     44250,-13954, 18449, -4485, 18692,-12769, -5920,0
       179,     44500,-15007, 18029, -3012, 19010,-11656, -7351,0
       180,     44750,-15975, 17493, -1510, 19211,-10462, -8747,0
       181,     45000,-16849, 16845,    13, 19295, -9194,-10098,0
       182,     45250,-17625, 16087,  1547, 19259, -7861,-11395,0
       183,     45500,-18297, 15223,  3081, 19103, -6469,-12630,0
       184,     45750,-18859, 14259,  4607, 18827, -5028,-13795,0
       185,     46000,-19308, 13199,  6115, 18432, -3546,-14881,0
       186,     46250,-19639, 12049,  7596, 17919, -2032,-15883,0
       187,     46500,-19851, 10816,  9039, 17292,  -495,-16792,0
       188,     46750,-19941,  9508, 10436, 16552,  1055,-17602,0
       189,     47000,-19907,  8132, 11778, 15705,  2609,-18309,0
       190,     47250,-19749,  6696, 13055, 14755,  4156,-18905,0
       191,     47500,-19468,  5209, 14260, 13707,  5687,-19388,0
       192,     47750,-19064,  3679, 15384, 12566,  7193,-19754,0
       193,     48000,-18538,  2117, 16420, 11341,  8663,-19998,0
       194,     48250,-17895,   532, 17361, 10036, 10089,-20120,0
       195,     48500,-17136, -1067, 18200,  8662, 11460,-20117,0
       196,     48750,-16266, -2670, 18932,  7225, 12769,-19989,0
       197,     49000,-15290, -4266, 19551,  5734, 14007,-19736,0
       198,     49250,-14213, -5846, 20053,  4198, 15164,-19358,0
       199,     49500,-13041, -7399, 20433,  2627, 16235,-18858,0
       200,     49750,-11781, -8916, 20690,  1030, 17211,-18237,0
       201,     50000,-10441,-10387, 20819,  -583, 18085,-17499,0
       202,     50250, -9028,-11802, 20821, -2201, 18852,-16648,0
       203,     50500, -7551,-13153, 20694, -3816, 19506,-15688,0
       204,     50750, -6019,-14430, 20438, -5416, 20043,-14625,0
       205,     51000, -4440,-15626, 20054, -6992, 20458,-13465,0
       206,     51250, -2825,-16731, 19544, -8534, 20749,-12214,0
       207,     51500, -1183,-17740, 18910,-10031, 20912,-10880,0
       208,     51750,   475,-18644, 18155,-11474, 20946, -9471,0
       209,     52000,  2140,-19438, 17285,-12855, 20850, -7995,0
       210,     52250,  3800,-20116, 16302,-14163, 20623, -6461,0
       211,     52500,  5446,-20674, 15213,-15390, 20267, -4879,0
       212,     52750,  7067,-21107, 14025,-16529, 19783, -3257,0
       213,     53000,  8653,-21411, 12744,-17571, 19174, -1606,0
       214,     53250, 10194,-21585, 11377,-18509, 18442,    64,0
       215,     53500, 11679,-21626,  9932,-19338, 17592,  1742,0
       216,     53750, 13100,-21534,  8419,-20051, 16627,  3419,0
       217,     54000, 14448,-21308,  6846,-20643, 15554,  5083,0
       218,     54250, 15712,-20949,  5223,-21110, 14379,  6725,0
       219,     54500, 16886,-20459,  3559,-21449, 13109,  8334,0
       220,     54750, 17961,-19840,  1866,-21656, 11750,  9899,0
       221,     55000, 18931,-19096,   152,-21730, 10311, 11411,0
       222,     55250, 19787,-18229, -1570,-21669,  8801, 12860,0
       223,     55500, 20526,-17246, -3292,-21473,  7229, 14237,0
       224,     55750, 21141,-16151, -5001,-21144,  5603, 15532,0
       225,     56000, 21628,-14951, -6687,-20681,  3935, 16737,0
       226,     56250, 21983,-13654, -8339,-20088,  2234, 17845,0
       227,     56500, 22204,-12265, -9948,-19367,   510, 18847,0
       228,     56750, 22289,-10795,-11502,-18522, -1225, 19738,0
       229,     57000, 22236, -9250,-12992,-17559, -2961, 20510,0
       230,     57250, 22045, -7642,-14408,-16482, -4687, 21159,0
       231,     57500, 21716, -5979,-15741,-15297, -6392, 21680,0
       232,     57750, 21252, -4272,-16983,-14012, -8066, 22069,0
       233,     58000, 20654, -2531,-18125,-12635, -9697, 22323,0
       234,     58250, 19925,  -766,-19160,-11172,-11277, 22439,0
       235,     58500, 19070,  1011,-20080, -9633,-12793, 22418,0
       236,     58750, 18092,  2789,-20880, -8028,-14238, 22257,0
       237,     59000, 16999,  4558,-21554, -6365,-15601, 21957,0
       238,     59250, 15795,  6306,-22098, -4655,-16873, 21520,0
       239,     59500, 14488,  8022,-22506, -2909,-18047, 20948,0
       240,     59750, 13086,  9696,-22777, -1137,-19114, 20243,0
       241,     60000, 11597, 11317,-22908,   650,-20067, 19410,0
       242,     60250, 10030, 12874,-22897,  2441,-20900, 18453,0
       243,     60500,  8393, 14359,-22744,  4224,-21608, 17378,0
       244,     60750,  6699, 15760,-22449,  5989,-22185, 16190,0
       245,     61000,  4955, 17069,-22014,  7724,-22626, 14897,0
       246,     61250,  3174, 18278,-21441,  9419,-22930, 13506,0
       247,     61500,  1365, 19378,-20732, 11063,-23092, 12025,0
       248,     61750,  -459, 20362,-19892, 12646,-23113, 10464,0
       249,     62000, -2288, 21225,-18925, 14156,-22990,  8831,0
       250,     62250, -4110, 21959,-17837, 15585,-22725,  7138,0
       251,     62500, -5913, 22560,-16634, 16923,-22317,  5392,0
       252,     62750, -7688, 23023,-15322, 18162,-21770,  3607,0
       253,     63000, -9422, 23346,-13911, 19294,-21086,  1792,0
       254,     63250,-11104, 23525,-12408, 20310,-20268,   -42,0
       255,     63500,-12724, 23559,-10821, 21205,-19322, -1882,0
       256,     63750,-14272, 23447, -9162, 21972,-18252, -3718,0
       257,     64000,-15737, 23189, -7439, 22606,-17065, -5538,0
       258,     64250,-17111, 22786, -5663, 23103,-15768, -7332,0
       259,     64500,-18383, 22241, -3846, 23458,-14368, -9086,0
       260,     64750,-19547, 21556, -1997, 23669,-12874,-10791,0
       261,     65000,-20594, 20734,  -129, 23735,-11295,-12436,0
       262,     65250,-21518, 19781,  1747, 23653, -9639,-14009,0
       263,     65500,-22312, 18702,  3619, 23425, -7918,-15502,0
       264,     65750,-22970, 17503,  5476, 23052, -6141,-16905,0
       265,     66000,-23489, 16191,  7307, 22533, -4320,-18208,0
       266,     66250,-23865, 14773,  9098, 21874, -2465,-19403,0
       267,     66500,-24094, 13259, 10840, 21077,  -588,-20482,0
       268,     66750,-24175, 11658, 12522, 20146,  1299,-21438,0
       269,     67000,-24106,  9978, 14132, 19087,  3185,-22265,0
       270,     67250,-23888,  8231, 15661, 17906,  5058,-22957,0
       271,     67500,-23522,  6426, 17098, 16610,  6907,-23510,0
       272,     67750,-23009,  4575, 18434, 15206,  8719,-23918,0
       273,     68000,-22351,  2689, 19662, 13704, 10483,-24180,0
       274,     68250,-21553,   779, 20772, 12111, 12189,-24293,0
       275,     68500,-20619, -1142, 21758, 10438, 13825,-24256,0
       276,     68750,-19554, -3062, 22612,  8695, 15381,-24069,0
       277,     69000,-18365, -4971, 23330,  6891, 16847,-23732,0
       278,     69250,-17058, -6855, 23906,  5039, 18214,-23247,0
       279,     69500,-15641, -8703, 24336,  3149, 19473,-22617,0
       280,     69750,-14123,-10504, 24618,  1234, 20615,-21844,0
       281,     70000,-12512,-12245, 24748,  -696, 21634,-20933,0
       282,     70250,-10819,-13917, 24725, -2628, 22522,-19890,0
       283,     70500, -9053,-15509, 24550, -4549, 23273,-18720,0
       284,     70750, -7226,-17010, 24223, -6449, 23883,-17431,0
       285,     71000, -5348,-18411, 23745, -8316, 24347,-16029,0
       286,     71250, -3431,-19702, 23118,-10137, 24662,-14523,0
       287,     71500, -1486,-20876, 22347,-11901, 24825,-12923,0
       288,     71750,   474,-21925, 21436,-13597, 24835,-11238,0
       289,     72000,  2436,-22841, 20389,-15214, 24691, -9477,0
       290,     72250,  4390,-23620, 19213,-16742, 24394, -7653,0
       291,     72500,  6323,-24255, 17915,-18171, 23945, -5775,0
       292,     72750,  8223,-24742, 16502,-19493, 23346, -3856,0
