FuseFailure,0,1999
10,9A,1D
1,in_IRMXUADVANCED1.AmpSv1_A.instMag,,,A,1.047563504E-01,0,0,-32768,32767,1,1,P
2,in_IRMXUADVANCED1.AmpSv1_B.instMag,,,A,1.681876646E-02,0,0,-32768,32767,1,1,P
3,in_IRMXUADVANCED1.AmpSv1_C.instMag,,,A,1.683775159E-02,0,0,-32768,32767,1,1,P
4,in_IRMXUADVANCED1.AmpSv1_N.instMag,,,A,1.006265464E-01,0,0,-32768,32767,1,1,P
5,in_URMXUADVANCED1.Vol1_A.instMag,,,V,2.893154787E+00,0,0,-32768,32767,1,1,P
6,in_URMXUADVANCED1.Vol1_B.instMag,,,V,2.894292699E+00,0,0,-32768,32767,1,1,P
7,in_URMXUADVANCED1.Vol1_C.instMag,,,V,2.893997581E+00,0,0,-32768,32767,1,1,P
8,in_URMXUADVANCED1.Vol1_N.instMag,,,V,6.426954674E-01,0,0,-32768,32767,1,1,P
9,in_URMXUADVANCED2.Vol1_A.instMag,,,V,5.011091085E+00,0,0,-32768,32767,1,1,P
1,in_SVTRDVANCED1.Pos.stVal,,,0
50.0
1
4000,8001
27/05/2021,10:51:30.962000
27/05/2021,10:51:30.962000
ASCII
1
1,0,-1769,-19014,30000,0,-8814,-20701,29515,0,-8814,0
2,250,-1403,-20764,29470,0,-6493,-22328,28821,0,-6493,0
3,500,-1030,-22390,28773,0,-4139,-23825,27965,0,-4139,0
4,750,-652,-23881,27909,0,-1766,-25178,26946,0,-1766,0
5,1000,-271,-25227,26882,0,613,-26378,25768,0,613,0
6,1250,111,-26420,25697,0,2983,-27417,24437,0,2983,0
7,1500,492,-27451,24360,0,5332,-28287,22960,0,5332,0
8,1750,869,-28316,22879,0,7644,-28985,21346,0,7644,0
9,2000,1240,-29006,21261,0,9907,-29505,19605,0,9907,0
10,2250,1602,-29519,19516,0,12106,-29844,17745,0,12106,0
11,2500,1955,-29851,17654,0,14229,-30000,15778,0,14229,0
12,2750,2295,-30000,15686,0,16263,-29971,13717,0,16263,0
13,3000,2621,-29964,13623,0,18195,-29758,11572,0,18195,0
14,3250,2931,-29744,11478,0,20014,-29362,9357,0,20014,0
15,3500,3222,-29341,9263,0,21708,-28786,7086,0,21708,0
16,3750,3493,-28758,6993,0,23269,-28032,4773,0,23269,0
17,4000,3743,-27998,4681,0,24685,-27105,2430,0,24685,0
18,4250,3969,-27065,2341,0,25948,-26012,74,0,25948,0
19,4500,4171,-25965,-13,0,27051,-24758,-2283,0,27051,0
20,4750,4347,-24706,-2366,0,27987,-23352,-4624,0,27987,0
21,5000,4496,-23294,-4704,0,28750,-21802,-6937,0,28750,0
22,5250,4617,-21739,-7013,0,29336,-20118,-9207,0,29336,0
23,5500,4710,-20050,-9278,0,29740,-18309,-11420,0,29740,0
24,5750,4774,-18238,-11485,0,29961,-16388,-13562,0,29961,0
25,6000,4809,-16313,-13622,0,29997,-14366,-15621,0,29997,0
26,6250,4813,-14288,-15674,0,29848,-12256,-17582,0,29848,0
27,6500,4788,-12174,-17630,0,29515,-10070,-19436,0,29515,0
28,6750,4734,-9986,-19476,0,29000,-7821,-21169,0,29000,0
29,7000,4650,-7736,-21203,0,28306,-5525,-22772,0,28306,0
30,7250,4538,-5438,-22798,0,27437,-3195,-24234,0,27437,0
31,7500,4397,-3107,-24253,0,26399,-844,-25547,0,26399,0
32,7750,4230,-757,-25559,0,25199,1511,-26702,0,25199,0
33,8000,4036,1598,-26706,0,23843,3857,-27693,0,23843,0
34,8250,3817,3943,-27689,0,22340,6179,-28513,0,22340,0
35,8500,3575,6264,-28502,0,20699,8463,-29157,0,20699,0
36,8750,3311,8546,-29138,0,18930,10695,-29621,0,18930,0
37,9000,3027,10776,-29595,0,17045,12861,-29902,0,17045,0
38,9250,2724,12939,-29869,0,15055,14947,-30000,0,15055,0
39,9500,2404,15022,-29960,0,12972,16942,-29912,0,12972,0
40,9750,2069,17012,-29865,0,10809,18832,-29640,0,10809,0
41,10000,1721,18898,-29586,0,8579,20606,-29185,0,8579,0
42,10250,1363,20667,-29125,0,6297,22253,-28550,0,6297,0
43,10500,997,22309,-28484,0,3975,23762,-27739,0,3975,0
44,10750,624,23813,-27668,0,1629,25125,-26757,0,1629,0
45,11000,247,25171,-26681,0,-727,26334,-25610,0,-727,0
46,11250,-131,26373,-25530,0,-3078,27380,-24305,0,-3078,0
47,11500,-508,27412,-24221,0,-5411,28257,-22850,0,-5411,0
48,11750,-882,28283,-22763,0,-7710,28960,-21255,0,-7710,0
49,12000,-1251,28979,-21164,0,-9962,29484,-19528,0,-9962,0
50,12250,-1612,29497,-19435,0,-12152,29826,-17681,0,-12152,0
51,12500,-1963,29832,-17587,0,-14267,29985,-15725,0,-14267,0
52,12750,-2302,29984,-15629,0,-16295,29959,-13672,0,-16295,0
53,13000,-2627,29951,-13576,0,-18221,29748,-11535,0,-18221,0
54,13250,-2935,29733,-11439,0,-20036,29354,-9326,0,-20036,0
55,13500,-3226,29332,-9231,0,-21727,28778,-7061,0,-21727,0
56,13750,-3496,28750,-6966,0,-23284,28026,-4751,0,-23284,0
57,14000,-3745,27991,-4658,0,-24698,27100,-2412,0,-24698,0
58,14250,-3971,27060,-2322,0,-25959,26008,-59,0,-25959,0
59,14500,-4173,25961,29,0,-27060,24755,2295,0,-27060,0
60,14750,-4348,24702,2379,0,-27994,23349,4635,0,-27994,0
61,15000,-4497,23291,4715,0,-28756,21800,6946,0,-28756,0
62,15250,-4619,21737,7022,0,-29341,20116,9215,0,-29341,0
63,15500,-4711,20048,9286,0,-29744,18308,11426,0,-29744,0
64,15750,-4775,18236,11492,0,-29965,16387,13567,0,-29965,0
65,16000,-4809,16312,13627,0,-30000,14365,15625,0,-30000,0
66,16250,-4814,14286,15679,0,-29851,12255,17586,0,-29851,0
67,16500,-4789,12173,17633,0,-29517,10069,19439,0,-29517,0
68,16750,-4734,9985,19479,0,-29001,7821,21172,0,-29001,0
69,17000,-4650,7735,21205,0,-28307,5524,22774,0,-28307,0
70,17250,-4538,5438,22800,0,-27438,3194,24236,0,-27438,0
71,17500,-4397,3107,24255,0,-26400,844,25548,0,-26400,0
72,17750,-4230,756,25560,0,-25200,-1511,26703,0,-25200,0
73,18000,-4036,-1599,26708,0,-23843,-3857,27694,0,-23843,0
74,18250,-3818,-3944,27690,0,-22340,-6179,28513,0,-22340,0
75,18500,-3576,-6264,28503,0,-20699,-8463,29157,0,-20699,0
76,18750,-3311,-8546,29139,0,-18931,-10695,29621,0,-18931,0
77,19000,-3027,-10776,29596,0,-17046,-12861,29903,0,-17046,0
78,19250,-2724,-12939,29870,0,-15055,-14947,30000,0,-15055,0
79,19500,-2404,-15022,29960,0,-12972,-16942,29912,0,-12972,0
80,19750,-2069,-17012,29865,0,-10809,-18832,29640,0,-10809,0
81,20000,-1721,-18898,29587,0,-8579,-20606,29185,0,-8579,0
82,20250,-1363,-20667,29125,0,-6297,-22253,28550,0,-6297,0
83,20500,-997,-22309,28485,0,-3975,-23762,27739,0,-3975,0
84,20750,-624,-23813,27668,0,-1629,-25125,26757,0,-1629,0
85,21000,-247,-25171,26681,0,727,-26334,25610,0,727,0
86,21250,131,-26373,25530,0,3078,-27380,24305,0,3078,0
87,21500,508,-27412,24221,0,5411,-28257,22850,0,5411,0
88,21750,882,-28283,22763,0,7710,-28960,21255,0,7710,0
89,22000,1251,-28979,21165,0,9962,-29484,19528,0,9962,0
90,22250,1612,-29497,19436,0,12152,-29826,17681,0,12152,0
91,22500,1963,-29832,17587,0,14267,-29985,15725,0,14267,0
92,22750,2302,-29984,15629,0,16295,-29959,13672,0,16295,0
93,23000,2627,-29951,13576,0,18221,-29748,11535,0,18221,0
94,23250,2935,-29733,11439,0,20036,-29354,9327,0,20036,0
95,23500,3226,-29332,9231,0,21727,-28778,7061,0,21727,0
96,23750,3496,-28750,6966,0,23284,-28026,4751,0,23284,0
97,24000,3745,-27991,4658,0,24698,-27100,2412,0,24698,0
98,24250,3971,-27060,2322,0,25959,-26008,59,0,25959,0
99,24500,4173,-25961,-29,0,27060,-24755,-2295,0,27060,0
100,24750,4348,-24702,-2379,0,27994,-23349,-4635,0,27994,0
101,25000,4497,-23291,-4715,0,28756,-21800,-6946,0,28756,0
102,25250,4619,-21737,-7022,0,29341,-20116,-9215,0,29341,0
103,25500,4711,-20048,-9286,0,29744,-18308,-11426,0,29744,0
104,25750,4775,-18236,-11492,0,29965,-16387,-13567,0,29965,0
105,26000,4809,-16312,-13627,0,30000,-14365,-15625,0,30000,0
106,26250,4814,-14286,-15679,0,29851,-12255,-17586,0,29851,0
107,26500,4789,-12173,-17633,0,29517,-10069,-19439,0,29517,0
108,26750,4734,-9985,-19479,0,29001,-7821,-21172,0,29001,0
109,27000,4650,-7735,-21205,0,28307,-5524,-22774,0,28307,0
110,27250,4538,-5438,-22800,0,27438,-3194,-24236,0,27438,0
111,27500,4397,-3107,-24255,0,26400,-844,-25548,0,26400,0
112,27750,4230,-756,-25560,0,25200,1511,-26703,0,25200,0
113,28000,4036,1599,-26708,0,23843,3857,-27694,0,23843,0
114,28250,3818,3944,-27690,0,22340,6179,-28513,0,22340,0
115,28500,3576,6264,-28502,0,20699,8463,-29157,0,20699,0
116,28750,3311,8546,-29139,0,18931,10695,-29621,0,18931,0
117,29000,3027,10776,-29596,0,17046,12861,-29903,0,17046,0
118,29250,2724,12939,-29870,0,15055,14947,-30000,0,15055,0
119,29500,2404,15022,-29960,0,12972,16942,-29912,0,12972,0
120,29750,2069,17012,-29865,0,10809,18832,-29640,0,10809,0
121,30000,1721,18898,-29587,0,8579,20606,-29185,0,8579,0
122,30250,1363,20667,-29125,0,6297,22253,-28550,0,6297,0
123,30500,997,22309,-28485,0,3975,23762,-27739,0,3975,0
124,30750,624,23813,-27668,0,1629,25125,-26757,0,1629,0
125,31000,247,25171,-26681,0,-727,26334,-25610,0,-727,0
126,31250,-131,26373,-25530,0,-3078,27380,-24305,0,-3078,0
127,31500,-508,27412,-24221,0,-5411,28257,-22850,0,-5411,0
128,31750,-882,28283,-22763,0,-7710,28960,-21255,0,-7710,0
129,32000,-1251,28979,-21165,0,-9962,29484,-19528,0,-9962,0
130,32250,-1612,29497,-19436,0,-12152,29826,-17681,0,-12152,0
131,32500,-1963,29832,-17587,0,-14267,29985,-15725,0,-14267,0
132,32750,-2302,29984,-15629,0,-16295,29959,-13672,0,-16295,0
133,33000,-2627,29951,-13576,0,-18221,29748,-11535,0,-18221,0
134,33250,-2935,29733,-11439,0,-20036,29354,-9327,0,-20036,0
135,33500,-3226,29332,-9231,0,-21727,28778,-7061,0,-21727,0
136,33750,-3496,28750,-6966,0,-23284,28026,-4751,0,-23284,0
137,34000,-3745,27991,-4658,0,-24698,27100,-2412,0,-24698,0
138,34250,-3971,27060,-2322,0,-25959,26008,-59,0,-25959,0
139,34500,-4173,25961,29,0,-27060,24755,2295,0,-27060,0
140,34750,-4348,24702,2379,0,-27994,23349,4635,0,-27994,0
141,35000,-4497,23291,4715,0,-28756,21800,6946,0,-28756,0
142,35250,-4619,21737,7022,0,-29341,20116,9215,0,-29341,0
143,35500,-4711,20048,9286,0,-29744,18308,11426,0,-29744,0
144,35750,-4775,18236,11492,0,-29965,16387,13567,0,-29965,0
145,36000,-4809,16312,13627,0,-30000,14365,15625,0,-30000,0
146,36250,-4814,14286,15679,0,-29851,12255,17586,0,-29851,0
147,36500,-4789,12173,17633,0,-29517,10069,19439,0,-29517,0
148,36750,-4734,9985,19479,0,-29001,7821,21172,0,-29001,0
149,37000,-4650,7735,21205,0,-28307,5524,22774,0,-28307,0
150,37250,-4538,5438,22800,0,-27438,3194,24236,0,-27438,0
151,37500,-4397,3107,24255,0,-26400,844,25548,0,-26400,0
152,37750,-4230,756,25560,0,-25200,-1511,26703,0,-25200,0
153,38000,-4036,-1599,26708,0,-23843,-3857,27694,0,-23843,0
154,38250,-3818,-3944,27690,0,-22340,-6179,28513,0,-22340,0
155,38500,-3576,-6264,28503,0,-20699,-8463,29157,0,-20699,0
156,38750,-3311,-8546,29139,0,-18931,-10695,29621,0,-18931,0
157,39000,-3027,-10776,29596,0,-17046,-12861,29903,0,-17046,0
158,39250,-2724,-12939,29870,0,-15055,-14947,30000,0,-15055,0
159,39500,-2404,-15022,29960,0,-12972,-16942,29912,0,-12972,0
160,39750,-2069,-17012,29865,0,-10809,-18832,29640,0,-10809,0
161,40000,-1721,-18898,29587,0,-8579,-20606,29185,0,-8579,0
162,40250,-1363,-20667,29125,0,-6297,-22253,28550,0,-6297,0
163,40500,-997,-22309,28485,0,-3975,-23762,27739,0,-3975,0
164,40750,-624,-23813,27668,0,-1629,-25125,26757,0,-1629,0
165,41000,-247,-25171,26681,0,727,-26334,25610,0,727,0
166,41250,131,-26373,25530,0,3078,-27380,24305,0,3078,0
167,41500,508,-27412,24221,0,5411,-28257,22850,0,5411,0
168,41750,882,-28283,22763,0,7710,-28960,21255,0,7710,0
169,42000,1251,-28979,21165,0,9962,-29484,19528,0,9962,0
170,42250,1612,-29497,19436,0,12152,-29826,17681,0,12152,0
171,42500,1963,-29832,17587,0,14267,-29985,15725,0,14267,0
172,42750,2302,-29984,15629,0,16295,-29959,13672,0,16295,0
173,43000,2627,-29951,13576,0,18221,-29748,11535,0,18221,0
174,43250,2935,-29733,11439,0,20036,-29354,9327,0,20036,0
175,43500,3226,-29332,9231,0,21727,-28778,7061,0,21727,0
176,43750,3496,-28750,6966,0,23284,-28026,4751,0,23284,0
177,44000,3745,-27991,4658,0,24698,-27100,2412,0,24698,0
178,44250,3971,-27060,2322,0,25959,-26008,59,0,25959,0
179,44500,4173,-25961,-29,0,27060,-24755,-2295,0,27060,0
180,44750,4348,-24702,-2379,0,27994,-23349,-4635,0,27994,0
181,45000,4497,-23291,-4715,0,28756,-21800,-6946,0,28756,0
182,45250,4619,-21737,-7022,0,29341,-20116,-9215,0,29341,0
183,45500,4711,-20048,-9286,0,29744,-18308,-11426,0,29744,0
184,45750,4775,-18236,-11492,0,29965,-16387,-13567,0,29965,0
185,46000,4809,-16312,-13627,0,30000,-14365,-15625,0,30000,0
186,46250,4814,-14286,-15679,0,29851,-12255,-17586,0,29851,0
187,46500,4789,-12173,-17633,0,29517,-10069,-19439,0,29517,0
188,46750,4734,-9985,-19479,0,29001,-7821,-21172,0,29001,0
189,47000,4650,-7735,-21205,0,28307,-5524,-22774,0,28307,0
190,47250,4538,-5438,-22800,0,27438,-3194,-24236,0,27438,0
191,47500,4397,-3107,-24255,0,26400,-844,-25548,0,26400,0
192,47750,4230,-756,-25560,0,25200,1511,-26703,0,25200,0
193,48000,4036,1599,-26708,0,23843,3857,-27694,0,23843,0
194,48250,3818,3944,-27690,0,22340,6179,-28513,0,22340,0
195,48500,3576,6264,-28502,0,20699,8463,-29157,0,20699,0
196,48750,3311,8546,-29139,0,18931,10695,-29621,0,18931,0
197,49000,3027,10776,-29596,0,17046,12861,-29903,0,17046,0
198,49250,2724,12939,-29870,0,15055,14947,-30000,0,15055,0
199,49500,2404,15022,-29960,0,12972,16942,-29912,0,12972,0
200,49750,2069,17012,-29865,0,10809,18832,-29640,0,10809,0
201,50000,1721,18898,-29587,0,8579,20606,-29185,0,8579,0
202,50250,1363,20667,-29125,0,6297,22253,-28550,0,6297,0
203,50500,997,22309,-28485,0,3975,23762,-27739,0,3975,0
204,50750,624,23813,-27668,0,1629,25125,-26757,0,1629,0
205,51000,247,25171,-26681,0,-727,26334,-25610,0,-727,0
206,51250,-131,26373,-25530,0,-3078,27380,-24305,0,-3078,0
207,51500,-508,27412,-24221,0,-5411,28257,-22850,0,-5411,0
208,51750,-882,28283,-22763,0,-7710,28960,-21255,0,-7710,0
209,52000,-1251,28979,-21165,0,-9962,29484,-19528,0,-9962,0
210,52250,-1612,29497,-19436,0,-12152,29826,-17681,0,-12152,0
211,52500,-1963,29832,-17587,0,-14267,29985,-15725,0,-14267,0
212,52750,-2302,29984,-15629,0,-16295,29959,-13672,0,-16295,0
213,53000,-2627,29951,-13576,0,-18221,29748,-11535,0,-18221,0
214,53250,-2935,29733,-11439,0,-20036,29354,-9327,0,-20036,0
215,53500,-3226,29332,-9231,0,-21727,28778,-7061,0,-21727,0
216,53750,-3496,28750,-6966,0,-23284,28026,-4751,0,-23284,0
217,54000,-3745,27991,-4658,0,-24698,27100,-2412,0,-24698,0
218,54250,-3971,27060,-2322,0,-25959,26008,-59,0,-25959,0
219,54500,-4173,25961,29,0,-27060,24755,2295,0,-27060,0
220,54750,-4348,24702,2379,0,-27994,23349,4635,0,-27994,0
221,55000,-4497,23291,4715,0,-28756,21800,6946,0,-28756,0
222,55250,-4619,21737,7022,0,-29341,20116,9215,0,-29341,0
223,55500,-4711,20048,9286,0,-29744,18308,11426,0,-29744,0
224,55750,-4775,18236,11492,0,-29965,16387,13567,0,-29965,0
225,56000,-4809,16312,13627,0,-30000,14365,15625,0,-30000,0
226,56250,-4814,14286,15679,0,-29851,12255,17586,0,-29851,0
227,56500,-4789,12173,17633,0,-29517,10069,19439,0,-29517,0
228,56750,-4734,9985,19479,0,-29001,7821,21172,0,-29001,0
229,57000,-4650,7735,21205,0,-28307,5524,22774,0,-28307,0
230,57250,-4538,5438,22800,0,-27438,3194,24236,0,-27438,0
231,57500,-4397,3107,24255,0,-26400,844,25548,0,-26400,0
232,57750,-4230,756,25560,0,-25200,-1511,26703,0,-25200,0
233,58000,-4036,-1599,26708,0,-23843,-3857,27694,0,-23843,0
234,58250,-3818,-3944,27690,0,-22340,-6179,28513,0,-22340,0
235,58500,-3576,-6264,28503,0,-20699,-8463,29157,0,-20699,0
236,58750,-3311,-8546,29139,0,-18931,-10695,29621,0,-18931,0
237,59000,-3027,-10776,29596,0,-17046,-12861,29903,0,-17046,0
238,59250,-2724,-12939,29870,0,-15055,-14947,30000,0,-15055,0
239,59500,-2404,-15022,29960,0,-12972,-16942,29912,0,-12972,0
240,59750,-2069,-17012,29865,0,-10809,-18832,29640,0,-10809,0
241,60000,-1721,-18898,29587,0,-8579,-20606,29185,0,-8579,0
242,60250,-1363,-20667,29125,0,-6297,-22253,28550,0,-6297,0
243,60500,-997,-22309,28485,0,-3975,-23762,27739,0,-3975,0
244,60750,-624,-23813,27668,0,-1629,-25125,26757,0,-1629,0
245,61000,-247,-25171,26681,0,727,-26334,25610,0,727,0
246,61250,131,-26373,25530,0,3078,-27380,24305,0,3078,0
247,61500,508,-27412,24221,0,5411,-28257,22850,0,5411,0
248,61750,882,-28283,22763,0,7710,-28960,21255,0,7710,0
249,62000,1251,-28979,21165,0,9962,-29484,19528,0,9962,0
250,62250,1612,-29497,19436,0,12152,-29826,17681,0,12152,0
251,62500,1963,-29832,17587,0,14267,-29985,15725,0,14267,0
252,62750,2302,-29984,15629,0,16295,-29959,13672,0,16295,0
253,63000,2627,-29951,13576,0,18221,-29748,11535,0,18221,0
254,63250,2935,-29733,11439,0,20036,-29354,9327,0,20036,0
255,63500,3226,-29332,9231,0,21727,-28778,7061,0,21727,0
256,63750,3496,-28750,6966,0,23284,-28026,4751,0,23284,0
257,64000,3745,-27991,4658,0,24698,-27100,2412,0,24698,0
258,64250,3971,-27060,2322,0,25959,-26008,59,0,25959,0
259,64500,4173,-25961,-29,0,27060,-24755,-2295,0,27060,0
260,64750,4348,-24702,-2379,0,27994,-23349,-4635,0,27994,0
261,65000,4497,-23291,-4715,0,28756,-21800,-6946,0,28756,0
262,65250,4619,-21737,-7022,0,29341,-20116,-9215,0,29341,0
263,65500,4711,-20048,-9286,0,29744,-18308,-11426,0,29744,0
264,65750,4775,-18236,-11492,0,29965,-16387,-13567,0,29965,0
265,66000,4809,-16312,-13627,0,30000,-14365,-15625,0,30000,0
266,66250,4814,-14286,-15679,0,29851,-12255,-17586,0,29851,0
267,66500,4789,-12173,-17633,0,29517,-10069,-19439,0,29517,0
268,66750,4734,-9985,-19479,0,29001,-7821,-21172,0,29001,0
269,67000,4650,-7735,-21205,0,28307,-5524,-22774,0,28307,0
270,67250,4538,-5438,-22800,0,27438,-3194,-24236,0,27438,0
271,67500,4397,-3107,-24255,0,26400,-844,-25548,0,26400,0
272,67750,4230,-756,-25560,0,25200,1511,-26703,0,25200,0
273,68000,4036,1599,-26708,0,23843,3857,-27694,0,23843,0
274,68250,3818,3944,-27690,0,22340,6179,-28513,0,22340,0
275,68500,3576,6264,-28502,0,20699,8463,-29157,0,20699,0
276,68750,3311,8546,-29139,0,18931,10695,-29621,0,18931,0
277,69000,3027,10776,-29596,0,17046,12861,-29903,0,17046,0
278,69250,2724,12939,-29870,0,15055,14947,-30000,0,15055,0
279,69500,2404,15022,-29960,0,12972,16942,-29912,0,12972,0
280,69750,2069,17012,-29865,0,10809,18832,-29640,0,10809,0
281,70000,1721,18898,-29587,0,8579,20606,-29185,0,8579,0
282,70250,1363,20667,-29125,0,6297,22253,-28550,0,6297,0
283,70500,997,22309,-28485,0,3975,23762,-27739,0,3975,0
284,70750,624,23813,-27668,0,1629,25125,-26757,0,1629,0
285,71000,247,25171,-26681,0,-727,26334,-25610,0,-727,0
286,71250,-131,26373,-25530,0,-3078,27380,-24305,0,-3078,0
287,71500,-508,27412,-24221,0,-5411,28257,-22850,0,-5411,0
288,71750,-882,28283,-22763,0,-7710,28960,-21255,0,-7710,0
289,72000,-1251,28979,-21165,0,-9962,29484,-19528,0,-9962,0
290,72250,-1612,29497,-19436,0,-12152,29826,-17681,0,-12152,0
291,72500,-1963,29832,-17587,0,-14267,29985,-15725,0,-14267,0
292,72750,-2302,29984,-15629,0,-16295,29959,-13672,0,-16295,0
293,73000,-2627,29951,-13576,0,-18221,29748,-11535,0,-18221,0
294,73250,-2935,29733,-11439,0,-20036,29354,-9327,0,-20036,0
295,73500,-3226,29332,-9231,0,-21727,28778,-7061,0,-21727,0
296,73750,-3496,28750,-6966,0,-23284,28026,-4751,0,-23284,0
297,74000,-3745,27991,-4658,0,-24698,27100,-2412,0,-24698,0
298,74250,-3971,27060,-2322,0,-25959,26008,-59,0,-25959,0
299,74500,-4173,25961,29,0,-27060,24755,2295,0,-27060,0
300,74750,-4348,24702,2379,0,-27994,23349,4635,0,-27994,0
301,75000,-4497,23291,4715,0,-28756,21800,6946,0,-28756,0
302,75250,-4619,21737,7022,0,-29341,20116,9215,0,-29341,0
303,75500,-4711,20048,9286,0,-29744,18308,11426,0,-29744,0
304,75750,-4775,18236,11492,0,-29965,16387,13567,0,-29965,0
305,76000,-4809,16312,13627,0,-30000,14365,15625,0,-30000,0
306,76250,-4814,14286,15679,0,-29851,12255,17586,0,-29851,0
307,76500,-4789,12173,17633,0,-29517,10069,19439,0,-29517,0
308,76750,-4734,9985,19479,0,-29001,7821,21172,0,-29001,0
309,77000,-4650,7735,21205,0,-28307,5524,22774,0,-28307,0
310,77250,-4538,5438,22800,0,-27438,3194,24236,0,-27438,0
311,77500,-4397,3107,24255,0,-26400,844,25548,0,-26400,0
312,77750,-4230,756,25560,0,-25200,-1511,26703,0,-25200,0
313,78000,-4036,-1599,26708,0,-23843,-3857,27694,0,-23843,0
314,78250,-3818,-3944,27690,0,-22340,-6179,28513,0,-22340,0
315,78500,-3576,-6264,28503,0,-20699,-8463,29157,0,-20699,0
316,78750,-3311,-8546,29139,0,-18931,-10695,29621,0,-18931,0
317,79000,-3027,-10776,29596,0,-17046,-12861,29903,0,-17046,0
318,79250,-2724,-12939,29870,0,-15055,-14947,30000,0,-15055,0
319,79500,-2404,-15022,29960,0,-12972,-16942,29912,0,-12972,0
320,79750,-2069,-17012,29865,0,-10809,-18832,29640,0,-10809,0
321,80000,-1721,-18898,29587,0,-8579,-20606,29185,0,-8579,0
322,80250,-1363,-20667,29125,0,-6297,-22253,28550,0,-6297,0
323,80500,-997,-22309,28485,0,-3975,-23762,27739,0,-3975,0
324,80750,-624,-23813,27668,0,-1629,-25125,26757,0,-1629,0
325,81000,-247,-25171,26681,0,727,-26334,25610,0,727,0
326,81250,131,-26373,25530,0,3078,-27380,24305,0,3078,0
327,81500,508,-27412,24221,0,5411,-28257,22850,0,5411,0
328,81750,882,-28283,22763,0,7710,-28960,21255,0,7710,0
